(1685659524.507448) vcan0 103#07BDE56F3103584C
(1685659524.512782) vcan0 103#475F9718B109D772
(1685659524.517857) vcan0 103#2361AA22062F7F4B
(1685659524.523722) vcan0 103#33C0B8612D04F01A
(1685659524.529110) vcan0 103#3854505AE89BBF3B
(1685659524.534733) vcan0 103#4EC958390DE2ED73
(1685659524.539984) vcan0 103#DCD6B466B40B5A0E
(1685659524.545191) vcan0 103#EE595E2B4875DB45
(1685659524.550462) vcan0 103#5C86F41B7BF4194E
(1685659524.556465) vcan0 103#9C7DF55E5A8CCA0B
(1685659524.562807) vcan0 103#DE7BD749698DB860
(1685659524.568144) vcan0 103#B179B4389C2F4458
(1685659524.573394) vcan0 103#95DB720D6B62645B
(1685659524.578719) vcan0 103#DBA12B79E08EF675
(1685659524.584361) vcan0 103#038B0928F736AC32
(1685659524.590699) vcan0 103#9D1206120A48EF17
(1685659524.597040) vcan0 103#283A047FE4719D2A
(1685659524.603376) vcan0 103#BC51C60A4B9BAE21
(1685659524.609216) vcan0 103#EBA01C76EF117F6C
(1685659524.614286) vcan0 103#789F9E3C23F56C50
(1685659524.619983) vcan0 103#D7AD3E28C668F775
(1685659524.626319) vcan0 103#30D75A44B484F30E
(1685659524.632343) vcan0 103#7A7451041E31B96F
(1685659524.637788) vcan0 103#FCF9CE54D6FA4520
(1685659524.644137) vcan0 103#9A25D33D9877C433
(1685659524.650477) vcan0 103#3087102C78A1AA07
(1685659524.656817) vcan0 103#01057D14E100C564
(1685659524.662471) vcan0 103#14D1EE5F96E0EF21
(1685659524.667554) vcan0 103#4C632940EF721A59
(1685659524.672876) vcan0 103#766FE61750EE3268
(1685659524.679214) vcan0 103#E6A9C60B1382EC29
(1685659524.684396) vcan0 103#5A3622000EE4CA0A
(1685659524.690734) vcan0 103#F8F389541688E80A
(1685659524.697076) vcan0 103#597F792CE394A64A
(1685659524.703419) vcan0 103#059A6777D11E1869
(1685659524.709769) vcan0 103#068A131BDD47A61F
(1685659524.716116) vcan0 103#98870F5F36616E5F
(1685659524.721616) vcan0 103#91CC992E12FC6063
(1685659524.727956) vcan0 103#5592274F8DC66803
(1685659524.733073) vcan0 103#E9F6A603EFB7FA0C
(1685659524.739414) vcan0 103#253E2D37197EB72F
(1685659524.745758) vcan0 103#6759A5142743AA4B
(1685659524.751274) vcan0 103#FB7E7C147B2A9474
(1685659524.757618) vcan0 103#BD239A6D47E2A554
(1685659524.762702) vcan0 103#6B9DAE4D34938005
(1685659524.767807) vcan0 103#97D0D83C51477559
(1685659524.774154) vcan0 103#47156D2FF206FB3C
(1685659524.779573) vcan0 103#602B40643F09F703
(1685659524.785914) vcan0 103#088FE347B9AAB910
(1685659524.791334) vcan0 103#229E9D4E0E294B3F
(1685659524.797676) vcan0 103#8BC9D1792828B169
(1685659524.803037) vcan0 103#EB70F15E2351E158
(1685659524.809385) vcan0 103#5F891F497C3D8B0D
(1685659524.814874) vcan0 103#354D423CB41B4718
(1685659524.821218) vcan0 103#0904F4101E44E93F
(1685659524.826932) vcan0 103#A3D341252E422148
(1685659524.832180) vcan0 103#38C2A06F0A2DE739
(1685659524.837273) vcan0 103#5585CB1333411D04
(1685659524.843616) vcan0 103#85577B2E13A96501
(1685659524.848725) vcan0 103#7A23C358F0F4297C
(1685659524.854307) vcan0 103#473CE60612F49B15
(1685659524.859499) vcan0 103#423C9F558E515336
(1685659524.864794) vcan0 103#04FB9652A267DF39
(1685659524.869880) vcan0 103#CE5A4A3A0C8A7A1A
(1685659524.875595) vcan0 103#5B12994AF0F8E708
(1685659524.880743) vcan0 103#1AB3C559E6DB6A44
(1685659524.886607) vcan0 103#192199720524B738
(1685659524.892502) vcan0 103#092D4C1D78AAB83B
(1685659524.897727) vcan0 103#816142463F7A8E59
(1685659524.903521) vcan0 103#2CC6FF538A653657
(1685659524.908731) vcan0 103#5DBE7719CF994179
(1685659524.915068) vcan0 103#B9A7571F95801809
(1685659524.920966) vcan0 103#D9C628330E2D2333
(1685659524.926443) vcan0 103#C8C1350D5E1EA461
(1685659524.931688) vcan0 103#21D6883443E5F865
(1685659524.936784) vcan0 103#4F13CE5D68126F3B
(1685659524.941913) vcan0 103#55D9947B914F6D33
(1685659524.947061) vcan0 103#F763C27159D42B4E
(1685659524.952171) vcan0 103#33B74C6DC5BE0C2C
(1685659524.957254) vcan0 103#655EA6688EC9E537
(1685659524.962323) vcan0 103#B5B7F43480116C42
(1685659524.967425) vcan0 103#75A5507CCED88D27
(1685659524.974012) vcan0 103#8535237B7ED29C19
(1685659524.979183) vcan0 103#4683466307976541
(1685659524.985518) vcan0 103#BD4C2B7372494637
(1685659524.990586) vcan0 103#91FC9B181B0BA30C
(1685659524.995652) vcan0 103#41E387304AA4F337
(1685659525.000722) vcan0 103#B08BBB151AAAB063
(1685659525.006775) vcan0 103#59D1166B794DF122
(1685659525.012561) vcan0 103#79C854457AA79F1F
(1685659525.017628) vcan0 103#BC32EA08C8DB2223
(1685659525.022705) vcan0 103#E3B90E5B110C7F04
(1685659525.027824) vcan0 103#592B9056DA1DD14C
(1685659525.033231) vcan0 103#6AE0AA528CE2DC43
(1685659525.038297) vcan0 103#9FDCDD78CF3E513B
(1685659525.043608) vcan0 103#1AACC27B5494D22D
(1685659525.048976) vcan0 103#4F50BD7D8F511378
(1685659525.054272) vcan0 103#236D6055D585E078
(1685659525.059909) vcan0 103#0E24B01169F0A638
(1685659525.065088) vcan0 103#DC1C463ACB70DB04
(1685659525.070212) vcan0 103#DC39ED6F6D19E252
(1685659525.075644) vcan0 103#E67B7E111D1D7520
(1685659525.080695) vcan0 103#B8BDD50A97073A27
(1685659525.085851) vcan0 103#38C72504118FEC75
(1685659525.090918) vcan0 103#10552B4AB18F7A49
(1685659525.095996) vcan0 103#8B368C15CC871553
(1685659525.101338) vcan0 103#796B9D6C6EF09A70
(1685659525.106411) vcan0 103#DD939457D2962D43
(1685659525.112156) vcan0 103#480E6C3D47743F2A
(1685659525.118489) vcan0 103#5E790A07E7EA4936
(1685659525.123577) vcan0 103#16B390657825CD02
(1685659525.129469) vcan0 103#3C7F1C6466034E63
(1685659525.135425) vcan0 103#0877E07A5FEC7C39
(1685659525.140549) vcan0 103#3B892E5C169B900C
(1685659525.146014) vcan0 103#C8DC237217A67416
(1685659525.151645) vcan0 103#E10B6C11A4161162
(1685659525.156737) vcan0 103#84BF5669C887EA22
(1685659525.162856) vcan0 103#C23386023C7D2C74
(1685659525.167966) vcan0 103#5F8F244AFAFAAB06
(1685659525.173068) vcan0 103#4D0C196A6FE44F14
(1685659525.178894) vcan0 103#AB8A2650D942A57F
(1685659525.185224) vcan0 103#3B6C656724F6C33C
(1685659525.190289) vcan0 103#473340701800FA3E
(1685659525.196152) vcan0 103#F68CF17F9041AC2D
(1685659525.201473) vcan0 103#5F7439695406FC06
(1685659525.206541) vcan0 103#772CF6637527CA4E
(1685659525.212367) vcan0 103#CC2BC909B3AB1248
(1685659525.217441) vcan0 103#DB2A1832D4A2A904
(1685659525.222604) vcan0 103#12988F0116B4460E
(1685659525.228436) vcan0 103#EA3D3A11DB74B373
(1685659525.233580) vcan0 103#2D5ABB24CC49A622
(1685659525.239354) vcan0 103#7F8BC455B219120E
(1685659525.245418) vcan0 103#94D1904541BF4A58
(1685659525.250485) vcan0 103#EE963E02F360B50F
(1685659525.256202) vcan0 103#3BBAF65E3CA3576C
(1685659525.261538) vcan0 103#62450524E6441D2F
(1685659525.266603) vcan0 103#15E6FC6B9DB16A0B
(1685659525.272233) vcan0 103#0A3BE16B5C193D5C
(1685659525.277728) vcan0 103#B5B1644A00C8D26B
(1685659525.283554) vcan0 103#EC5AE90914269E33
(1685659525.288738) vcan0 103#54CECE726487DF6D
(1685659525.294243) vcan0 103#894D680221FA977C
(1685659525.300024) vcan0 103#1733F23565788034
(1685659525.305314) vcan0 103#F59C41012ACB8137
(1685659525.311098) vcan0 103#7B2CC742E0DA7B12
(1685659525.316381) vcan0 103#0540352BA9868267
(1685659525.321912) vcan0 103#AC24223584CBF900
(1685659525.327790) vcan0 103#5BA0947540F6B27A
(1685659525.333095) vcan0 103#C68A44594937D377
(1685659525.338714) vcan0 103#3357680A01453B38
(1685659525.344173) vcan0 103#85DA2A64959C6D2E
(1685659525.349588) vcan0 103#E88958679AC02750
(1685659525.355477) vcan0 103#324ED839F2C43953
(1685659525.360638) vcan0 103#F7D9642CE7FF3C04
(1685659525.366228) vcan0 103#F38C0C3FE3344E36
(1685659525.371906) vcan0 103#FB25DB37475BDB31
(1685659525.377250) vcan0 103#47BC2D248473433A
(1685659525.382916) vcan0 103#6855732E5FEF1F5A
(1685659525.388164) vcan0 103#E9EBC36E5EF2B42F
(1685659525.393408) vcan0 103#89BAA11165188B31
(1685659525.399253) vcan0 103#3ECD30428EFAD63C
(1685659525.404397) vcan0 103#0E9F0D19EAF15277
(1685659525.409976) vcan0 103#12C6D03D693FA20E
(1685659525.415880) vcan0 103#2AE80572D8501517
(1685659525.421290) vcan0 103#B27675065D3F6E7C
(1685659525.426973) vcan0 103#DA95504F3851A06A
(1685659525.432164) vcan0 103#F2DBDB2AC21FA936
(1685659525.437496) vcan0 103#D211C83A242AB464
(1685659525.442645) vcan0 103#B4E4E209C9EB2C67
(1685659525.448333) vcan0 103#0B2AF168A771EF48
(1685659525.453564) vcan0 103#AD207B1D0650CC20
(1685659525.459351) vcan0 103#EFCCCA7AF4DCA841
(1685659525.464621) vcan0 103#8AC30F5B57223E29
(1685659525.469711) vcan0 103#53CCC81B74AFD349
(1685659525.474831) vcan0 103#B514F358DC866A2D
(1685659525.480306) vcan0 103#D9C75E7BF3E1231B
(1685659525.485412) vcan0 103#6A81416AE7666C14
(1685659525.491223) vcan0 103#DDD376127D471228
(1685659525.497259) vcan0 103#50A60E2307BC7C04
(1685659525.502357) vcan0 103#5598273F021D8429
(1685659525.507957) vcan0 103#64FBEA002F2E780E
(1685659525.513646) vcan0 103#3A6E241456D7C62B
(1685659525.519288) vcan0 103#F14D21450D80EC4E
(1685659525.525081) vcan0 103#7A017B10A632044F
(1685659525.530865) vcan0 103#D66B1936852B6C79
(1685659525.536255) vcan0 103#4DA4F317838C9453
(1685659525.542281) vcan0 103#8B7B381A3C71BE12
(1685659525.547431) vcan0 103#78693D15163F4875
(1685659525.552509) vcan0 103#9493FC3BCB350631
(1685659525.557623) vcan0 103#8AEE1B3F49A8EF14
(1685659525.562732) vcan0 103#A8BC705E63B67A3A
(1685659525.567883) vcan0 103#3D8A1330123EB248
(1685659525.572969) vcan0 103#4A1DE74E1A5E8A42
(1685659525.578590) vcan0 103#8F85C4709AC3F571
(1685659525.583734) vcan0 103#221A0747E51DEC2F
(1685659525.588970) vcan0 103#9CE0791B8615F247
(1685659525.594268) vcan0 103#144C643ED74E9E2F
(1685659525.600142) vcan0 103#DDECB873069A8503
(1685659525.605231) vcan0 103#E4CE8A7E57EE3304
(1685659525.611232) vcan0 103#ACCC8952BA3AA434
(1685659525.616804) vcan0 103#DD19A07DF9707D6A
(1685659525.622662) vcan0 103#3EC738086895D817
(1685659525.628274) vcan0 103#36E23B7DB630761D
(1685659525.634285) vcan0 103#7ED4200DCA753839
(1685659525.639401) vcan0 103#81667C4E08C33C4C
(1685659525.645350) vcan0 103#131E284E2923ED2C
(1685659525.651150) vcan0 103#6B79B70650A83B7E
(1685659525.657090) vcan0 103#3C619F75B5969E55
(1685659525.662241) vcan0 103#6B06C640CBE66366
(1685659525.668194) vcan0 103#4F5A94478D20CD07
(1685659525.674209) vcan0 103#B0045016EC3A0E63
(1685659525.679497) vcan0 103#1336BF4FC550B454
(1685659525.685280) vcan0 103#C389AC12F0227843
(1685659525.691116) vcan0 103#CBEA3958A7583711
(1685659525.697093) vcan0 103#4811AC4777B7C32A
(1685659525.702980) vcan0 103#6193DB45252B4C45
(1685659525.708947) vcan0 103#702841159F5A144E
(1685659525.714806) vcan0 103#8DC0245DA60A7D12
(1685659525.720709) vcan0 103#558B8A6B0C95456A
(1685659525.725797) vcan0 103#7080B54BD7F1063A
(1685659525.731693) vcan0 103#14588236849EDD19
(1685659525.737411) vcan0 103#0015F46680D1393D
(1685659525.743240) vcan0 103#D44619183C76935C
(1685659525.748917) vcan0 103#3568D8123F4DDF58
(1685659525.754503) vcan0 103#085DF74285C26C5A
(1685659525.759777) vcan0 103#CC6DAC60B8614759
(1685659525.765175) vcan0 103#71FD7A3DE0A36B30
(1685659525.770273) vcan0 103#7DB2FB2D34872750
(1685659525.775552) vcan0 103#D0C6E373489D3506
(1685659525.780941) vcan0 103#DBDF5E6118D88F3B
(1685659525.786033) vcan0 103#BF54F9303C733A27
(1685659525.791134) vcan0 103#3D03DC00307D3A46
(1685659525.796370) vcan0 103#DCCD4E75CBC3005E
(1685659525.801471) vcan0 103#D687B7583159D960
(1685659525.807293) vcan0 103#D758464847086D24
(1685659525.812554) vcan0 103#084BE01AEBB0C87E
(1685659525.818281) vcan0 103#CBA64A3E0960D401
(1685659525.823659) vcan0 103#6B82023C9FED6356
(1685659525.829284) vcan0 103#45D6675EA1EADA4E
(1685659525.834799) vcan0 103#DF3A432F4D335F21
(1685659525.840173) vcan0 103#26AD4729ABA8EF0F
(1685659525.845847) vcan0 103#0695A67A97AAC266
(1685659525.851792) vcan0 103#8B4C5B408347A228
(1685659525.857677) vcan0 103#CB31EA365C133F34
(1685659525.863256) vcan0 103#CCE4D72EA6114918
(1685659525.868396) vcan0 103#74EBCE6F8B39D15F
(1685659525.873688) vcan0 103#E284833FB2EEAA70
(1685659525.879255) vcan0 103#BBB60B26BE52D234
(1685659525.884448) vcan0 103#7DB2AB4E923EC37E
(1685659525.889866) vcan0 103#F0ABAB15540BF216
(1685659525.895314) vcan0 103#D9463023F8F68B30
(1685659525.900400) vcan0 103#3FBCBA15A4ED7A61
(1685659525.906284) vcan0 103#01576032AB3EBD51
(1685659525.912322) vcan0 103#43DBDE37472DC810
(1685659525.918256) vcan0 103#4C29982022162267
(1685659525.924162) vcan0 103#9460273272D6DF49
(1685659525.930104) vcan0 103#CEBE11779AF5CD2C
(1685659525.935298) vcan0 103#0981A230590B6D37
(1685659525.940728) vcan0 103#1E3D7055D4B28C67
(1685659525.946110) vcan0 103#B51EAC6BEA214804
(1685659525.951198) vcan0 103#7AC4D57F2A0A7B5B
(1685659525.956461) vcan0 103#755B19645C49593F
(1685659525.961556) vcan0 103#DCF8254C3112250A
(1685659525.967335) vcan0 103#1B9C2B7459ABD11A
(1685659525.972450) vcan0 103#C350E8080B48D709
(1685659525.978451) vcan0 103#ADB6C3319C97182C
(1685659525.984192) vcan0 103#033F633AEC727E47
(1685659525.989739) vcan0 103#4085930D0596C36C
(1685659525.995572) vcan0 103#97B13B1983607245
(1685659526.000906) vcan0 103#4CC38B7DE3DAD339
(1685659526.006176) vcan0 103#A676942CE023B32F
(1685659526.011648) vcan0 103#55B1B3037435A623
(1685659526.017028) vcan0 103#7B19815C5E325634
(1685659526.022153) vcan0 103#CD40135B9956F131
(1685659526.027228) vcan0 103#32E5E21B835FBF46
(1685659526.032410) vcan0 103#83783936ACA9B81B
(1685659526.037453) vcan0 103#AD693A22F8D3521A
(1685659526.042791) vcan0 103#09F3115B8962606E
(1685659526.047928) vcan0 103#29E67724248F3D4F
(1685659526.053049) vcan0 103#E20D3209EC36602D
(1685659526.058158) vcan0 103#2FD714598FC4F53A
(1685659526.063503) vcan0 103#88CE785932167813
(1685659526.068847) vcan0 103#7B377402C8530C67
(1685659526.074766) vcan0 103#37AC3B0013E9AF1B
(1685659526.080157) vcan0 103#4CB47E2C836FC77D
(1685659526.085503) vcan0 103#F6C38355F22A1359
(1685659526.090863) vcan0 103#64937A2D4C753759
(1685659526.096034) vcan0 103#6660B97CDFACFB09
(1685659526.101276) vcan0 103#AAA78D0D33A1CC57
(1685659526.106378) vcan0 103#7803ED3BDD8C7029
(1685659526.111457) vcan0 103#B6008C1EFB7B2672
(1685659526.116615) vcan0 103#89362945636AC640
(1685659526.122691) vcan0 103#F34F790C92293B20
(1685659526.128172) vcan0 103#ECCC262F1D36F130
(1685659526.133379) vcan0 103#B6B8786FCEDA5838
(1685659526.138469) vcan0 103#096D515EE58F8D48
(1685659526.143564) vcan0 103#5D9F4E73923BCA37
(1685659526.148667) vcan0 103#18A6055CD9D6C275
(1685659526.153735) vcan0 103#5A8FD61E4F52415C
(1685659526.158832) vcan0 103#ECBF7211A643554B
(1685659526.163914) vcan0 103#D3C1085AE283F666
(1685659526.169072) vcan0 103#986E682437558307
(1685659526.174269) vcan0 103#2EF92D40FECE2121
(1685659526.179516) vcan0 103#16027F11D9A0BB4D
(1685659526.184632) vcan0 103#3270EE788E056C4D
(1685659526.189707) vcan0 103#B62D2C77E8707A17
(1685659526.194798) vcan0 103#8981923F3F64553C
(1685659526.199929) vcan0 103#4CDB40587CD10B4C
(1685659526.205087) vcan0 103#D28D905C38A86707
(1685659526.210287) vcan0 103#9907FD7C8846094C
(1685659526.215527) vcan0 103#0783C03FA3744E5B
(1685659526.220703) vcan0 103#6ED6961464220F33
(1685659526.225802) vcan0 103#35B01813867C9C70
(1685659526.230930) vcan0 103#3DF9D1288F3FEF31
(1685659526.236063) vcan0 103#D5CEDD4C29B9443A
(1685659526.241201) vcan0 103#3683447DA890E626
(1685659526.246422) vcan0 103#0C3D3B21CEF1AC21
(1685659526.251546) vcan0 103#DFE5692E3A366961
(1685659526.256667) vcan0 103#CDC0CE42F5E7E83F
(1685659526.261759) vcan0 103#13D7242FFF30BD3B
(1685659526.266870) vcan0 103#83ED540DC9045126
(1685659526.271947) vcan0 103#E7A137530C6FE74C
(1685659526.277142) vcan0 103#0969A662337D782B
(1685659526.282341) vcan0 103#8940F318DBF6363F
(1685659526.287583) vcan0 103#6C25E0322248F015
(1685659526.292689) vcan0 103#633D400B73A8A072
(1685659526.299026) vcan0 103#C5BC3E71D113D71F
(1685659526.304435) vcan0 103#D7CAAF25FA6C5704
(1685659526.310782) vcan0 103#5790731015C4814E
(1685659526.316445) vcan0 103#8AAC46362D5F515D
(1685659526.322784) vcan0 103#3E7DC608C02F8B33
(1685659526.328354) vcan0 103#D5EF37044ABA012A
(1685659526.334691) vcan0 103#8E213855B5D5A132
(1685659526.339849) vcan0 103#85F06A0B5BE20618
(1685659526.346176) vcan0 103#AABD8A7298C78F3A
(1685659526.351438) vcan0 103#5A13C4532EABDF7F
(1685659526.357774) vcan0 103#62CCE06042B5FB26
(1685659526.362918) vcan0 103#3A1AC74C6B358743
(1685659526.369255) vcan0 103#75327452C35ABA65
(1685659526.374337) vcan0 103#462CBE02E1575405
(1685659526.380676) vcan0 103#E6A2AA7BA969FE0D
(1685659526.386293) vcan0 103#5400F577AB5FE96C
(1685659526.391479) vcan0 103#7B7DD52D2CCBA41D
(1685659526.397077) vcan0 103#A6CC4071D20D493E
(1685659526.403419) vcan0 103#418F266C30798727
(1685659526.409344) vcan0 103#FF6C9A1B7F0CED74
(1685659526.415183) vcan0 103#F0A8125BD55CD21F
(1685659526.420393) vcan0 103#CAC6EE1E7ECA4A30
(1685659526.425547) vcan0 103#8A3274524FB7592A
(1685659526.430714) vcan0 103#DAAC514834F0FE44
(1685659526.435802) vcan0 103#E77EE96434C0151C
(1685659526.440913) vcan0 103#629BDE44494BCA45
(1685659526.446001) vcan0 103#767511439DB5A511
(1685659526.451178) vcan0 103#B4805109ECA78515
(1685659526.456267) vcan0 103#60106077FAAC0F0C
(1685659526.461495) vcan0 103#CDFFD91A46B30A73
(1685659526.466694) vcan0 103#A4160E1A2200CF12
(1685659526.471800) vcan0 103#F212F45F1F94E347
(1685659526.477033) vcan0 103#4ECB733098DF3451
(1685659526.482425) vcan0 103#F1A12C068F5A9A1C
(1685659526.487758) vcan0 103#C858BC78F10EC721
(1685659526.492996) vcan0 103#0E678711B801CF53
(1685659526.498153) vcan0 103#C66B9941D82D7630
(1685659526.503237) vcan0 103#36CC1904509E0D14
(1685659526.508324) vcan0 103#27E5CF5A10796B4C
(1685659526.513449) vcan0 103#848E0C590F64B93F
(1685659526.519286) vcan0 103#45398168E729EB1D
(1685659526.524367) vcan0 103#58AF8305BBAE922B
(1685659526.529590) vcan0 103#84DF902F0D30D50E
(1685659526.535475) vcan0 103#A7561841E4EFF026
(1685659526.540588) vcan0 103#07DDE41A7556F25B
(1685659526.545713) vcan0 103#2BA3FB19ABF3F234
(1685659526.551160) vcan0 103#9756C16E1DB6EF79
(1685659526.556689) vcan0 103#CA87D67CE521351F
(1685659526.561999) vcan0 103#B595244BBC290303
(1685659526.567484) vcan0 103#747CCF3B7DEEE043
(1685659526.573100) vcan0 103#AD38CA2482E3564D
(1685659526.578193) vcan0 103#35F0AF1773A46366
(1685659526.583704) vcan0 103#5B11CD7D6BBCC91B
(1685659526.588791) vcan0 103#C342717A82F69C58
(1685659526.594198) vcan0 103#7C35356847D17D53
(1685659526.599489) vcan0 103#915A5618C16EB650
(1685659526.604623) vcan0 103#2EFB6871EA09DA1D
(1685659526.610223) vcan0 103#7C1D497CB2DAF920
(1685659526.615356) vcan0 103#F739AF2C2474613D
(1685659526.621165) vcan0 103#97CAEA47FE169447
(1685659526.627131) vcan0 103#99CA5319C26DE661
(1685659526.632415) vcan0 103#AA0A877C30211508
(1685659526.637573) vcan0 103#DF23D65B74925D79
(1685659526.643451) vcan0 103#15434A2794B9FA26
(1685659526.649208) vcan0 103#30BC607C89BF1963
(1685659526.655141) vcan0 103#11A8DB6ADDF42A21
(1685659526.660272) vcan0 103#0BA3703046988B02
(1685659526.665456) vcan0 103#50998E0766B43D2E
(1685659526.671187) vcan0 103#B154551E13DCFF01
(1685659526.676283) vcan0 103#E9AADA062D8A8A06
(1685659526.681510) vcan0 103#5BAD7D557A05311F
(1685659526.686671) vcan0 103#EEF8405789A8E646
(1685659526.692349) vcan0 103#640F0B3D6B168A53
(1685659526.697461) vcan0 103#3C83E0675B49BA69
(1685659526.703266) vcan0 103#8F8AEB10D34DCB2F
(1685659526.708401) vcan0 103#5A604E3128553F2A
(1685659526.713950) vcan0 103#95BBB111046BD52D
(1685659526.719844) vcan0 103#5876543274DF876D
(1685659526.725237) vcan0 103#78FD32276DB99E59
(1685659526.730902) vcan0 103#08998214A9B99323
(1685659526.736006) vcan0 103#F678B83C19415E7F
(1685659526.741295) vcan0 103#86AEBE44011C296D
(1685659526.746398) vcan0 103#5FD9E901D7474D4C
(1685659526.751820) vcan0 103#68D0661B102E3F20
(1685659526.757028) vcan0 103#EA234D4E517B4122
(1685659526.762684) vcan0 103#3EB8C92645D1CA23
(1685659526.767846) vcan0 103#CB8072412CB10A7E
(1685659526.773116) vcan0 103#CF79B16A30907D7E
(1685659526.778380) vcan0 103#97C794510BFD9152
(1685659526.784430) vcan0 103#8BD9376826528062
(1685659526.789589) vcan0 103#DE4A5D02E5398619
(1685659526.795935) vcan0 103#4EA7BF0C73060F14
(1685659526.801032) vcan0 103#E9A45B47A61D143F
(1685659526.806682) vcan0 103#E7E5960162A28E6E
(1685659526.811833) vcan0 103#13D7B218EF7E1916
(1685659526.817117) vcan0 103#0B5C221209506B55
(1685659526.822260) vcan0 103#08C07715910AE156
(1685659526.828298) vcan0 103#0B6C944267996117
(1685659526.834325) vcan0 103#68522E23733CFB5D
(1685659526.840156) vcan0 103#77C7A03753767B71
(1685659526.845343) vcan0 103#C4B73C00B57F6A5E
(1685659526.850484) vcan0 103#984746158F38AF41
(1685659526.856388) vcan0 103#E230755C67C1F77F
(1685659526.862051) vcan0 103#BFC82C4079F8092E
(1685659526.868006) vcan0 103#72BE89524BA26428
(1685659526.873614) vcan0 103#A04A8A105009E754
(1685659526.879953) vcan0 103#30DCEA41EEF1491D
(1685659526.885797) vcan0 103#C30FF6681A814609
(1685659526.892134) vcan0 103#950F5E5CAAF58C6A
(1685659526.898279) vcan0 103#7C23D577A8E61075
(1685659526.904280) vcan0 103#9974A600877FF709
(1685659526.910358) vcan0 103#B2367C4AA1341E16
(1685659526.916180) vcan0 103#188AD860BDA2100D
(1685659526.921820) vcan0 103#08CE7F2D81DC0604
(1685659526.926919) vcan0 103#30DF0B6B80952065
(1685659526.932004) vcan0 103#D4528275F496486B
(1685659526.938057) vcan0 103#35158B436C9AC80A
(1685659526.943306) vcan0 103#83CFF72C17460020
(1685659526.949643) vcan0 103#D45BC00A4398246D
(1685659526.955187) vcan0 103#913E0A4E461A4A5D
(1685659526.960440) vcan0 103#8E3A89153189945E
(1685659526.966145) vcan0 103#97233132BE167457
(1685659526.971292) vcan0 103#1F7BDE7B5A33271B
(1685659526.977630) vcan0 103#D897BA60B48A3C58
(1685659526.982892) vcan0 103#0529B40554BB8F58
(1685659526.989234) vcan0 103#5D714D4D9E9D5A06
(1685659526.995585) vcan0 103#DB3A87620FA8C917
(1685659527.001921) vcan0 103#40D2781CF4C45F43
(1685659527.008257) vcan0 103#CC4ADA2448A0F849
(1685659527.013688) vcan0 103#75A16647FC29E60F
(1685659527.020040) vcan0 103#C835192F49F4E83C
(1685659527.026380) vcan0 103#F0C02E7BFE4AA472
(1685659527.032723) vcan0 103#B58EB14773902628
(1685659527.039067) vcan0 103#1591A41289EA7152
(1685659527.044397) vcan0 103#B6284B15A6CFAE60
(1685659527.050735) vcan0 103#D004BC2F4463D42A
(1685659527.057073) vcan0 103#D758433F6728ED61
(1685659527.063409) vcan0 103#037A4802F7D3213B
(1685659527.069757) vcan0 103#C15B147DDB110363
(1685659527.076095) vcan0 103#AB5E5E13C684C802
(1685659527.082438) vcan0 103#30CD923B08D0AB60
(1685659527.088778) vcan0 103#652223090B081A1E
(1685659527.095125) vcan0 103#17787578A5F49B25
(1685659527.101469) vcan0 103#FFCC7961E3C24F1D
(1685659527.107817) vcan0 103#ED94946F746EE028
(1685659527.114174) vcan0 103#DFEC352DB6CAAD1E
(1685659527.120520) vcan0 103#BD62C965CFAD6428
(1685659527.126674) vcan0 103#B415521173F17A2D
(1685659527.132334) vcan0 103#433E8B50C9A6F623
(1685659527.137829) vcan0 103#FCDBEC7FF966D665
(1685659527.142947) vcan0 103#7076A504CCE0A82F
(1685659527.148094) vcan0 103#3ECAAA1047CFE843
(1685659527.153193) vcan0 103#330996114144F312
(1685659527.158407) vcan0 103#3EA30A7FF564AA0E
(1685659527.163550) vcan0 103#1C56F675EA016912
(1685659527.168829) vcan0 103#BBE972114C238931
(1685659527.173943) vcan0 103#F2D11473200C961A
(1685659527.179064) vcan0 103#582BA34F0A4A8A6B
(1685659527.184239) vcan0 103#C500324057F81C31
(1685659527.189439) vcan0 103#ED0CDA08B395C62F
(1685659527.194722) vcan0 103#CC66FD59CDF90F36
(1685659527.200678) vcan0 103#6960744E89C9C63F
(1685659527.207032) vcan0 103#9CA7745E1D76C65F
(1685659527.213327) vcan0 103#FCBA416DDFE5FF2E
(1685659527.218696) vcan0 103#E61CBD03F9962E6D
(1685659527.225065) vcan0 103#D94CD61456936208
(1685659527.230855) vcan0 103#C577D71C17178125
(1685659527.237200) vcan0 103#9E624B4CF9806D2E
(1685659527.243295) vcan0 103#585B7438DC05564B
(1685659527.248556) vcan0 103#EEE5173D74B16A2E
(1685659527.254713) vcan0 103#C607BF5DA9CF8A4E
(1685659527.260131) vcan0 103#C1D4F35FB9D9D350
(1685659527.266444) vcan0 103#CADB20691900972F
(1685659527.271919) vcan0 103#C3235E3C8FDC5229
(1685659527.278169) vcan0 103#70F8B360B0303845
(1685659527.283466) vcan0 103#427219593C5FB13A
(1685659527.288901) vcan0 103#7D2A487BABD28D27
(1685659527.295097) vcan0 103#C628787A1AD2BC59
(1685659527.300620) vcan0 103#C8485407C2E3B967
(1685659527.305798) vcan0 103#F9B7BC08AF65110B
(1685659527.311857) vcan0 103#BB7AE854D204931D
(1685659527.316994) vcan0 103#05F9731381F2BF71
(1685659527.322160) vcan0 103#E91B1443A35BBF5F
(1685659527.327363) vcan0 103#7A732D204177887B
(1685659527.332645) vcan0 103#8061152B6859455D
(1685659527.337724) vcan0 103#B628F3294669D408
(1685659527.342825) vcan0 103#1129D02B77FDE609
(1685659527.348649) vcan0 103#FF42A859DB04F114
(1685659527.354593) vcan0 103#90FD7D39C2660616
(1685659527.359674) vcan0 103#6BE1433E00F6311A
(1685659527.364756) vcan0 103#73973E5BAD535D17
(1685659527.371107) vcan0 103#3D55E354F0C18656
(1685659527.377446) vcan0 103#5926EB3E037E5B4F
(1685659527.383428) vcan0 103#0A944330216F3F46
(1685659527.389770) vcan0 103#C5611537044C0039
(1685659527.395573) vcan0 103#D0D4505181DCFD0B
(1685659527.401919) vcan0 103#D6509356D6CDC464
(1685659527.407561) vcan0 103#02CFBD7DC06CA719
(1685659527.413896) vcan0 103#792984447C42EB1D
(1685659527.420230) vcan0 103#01E42F15F98A996F
(1685659527.426572) vcan0 103#E49B307BB70C233F
(1685659527.432663) vcan0 103#40F46D78F5C40027
(1685659527.439003) vcan0 103#2E0A0A493F371652
(1685659527.444374) vcan0 103#D1C9F13BBE078802
(1685659527.450716) vcan0 103#029E1C683CAB357A
(1685659527.456752) vcan0 103#BFFDB91C75355B43
(1685659527.463097) vcan0 103#E9FE9211FC529D71
(1685659527.469440) vcan0 103#65F7E11942257E50
(1685659527.475777) vcan0 103#FFD0F840708B254A
(1685659527.482122) vcan0 103#6494BD16C4320E78
(1685659527.488038) vcan0 103#74D7250334690E68
(1685659527.494377) vcan0 103#450F0C044A28B959
(1685659527.500269) vcan0 103#0A37D34C47DEC901
(1685659527.506611) vcan0 103#0A95607384605711
(1685659527.512956) vcan0 103#C320B51F0C799008
(1685659527.518240) vcan0 103#7DEBF000A7BCE51A
(1685659527.523600) vcan0 103#C385B347BDDF5E79
(1685659527.529232) vcan0 103#9D81E641F28FBD10
(1685659527.534703) vcan0 103#FD16754B6E4BD87D
(1685659527.539833) vcan0 103#B0974513FFB49133
(1685659527.545208) vcan0 103#AAF60D786F95FF2F
(1685659527.550400) vcan0 103#74EAEC7693F5A009
(1685659527.555786) vcan0 103#6BE89C21D9E1CE10
(1685659527.560866) vcan0 103#D61A1F5A6AB99562
(1685659527.566125) vcan0 103#496DF45A3AAFDC70
(1685659527.571261) vcan0 103#2FECA35ABD441A5E
(1685659527.576953) vcan0 103#6E18EB5874FBAF5E
(1685659527.583045) vcan0 103#086DD337794FBE25
(1685659527.589402) vcan0 103#BCD979601202342B
(1685659527.595756) vcan0 103#FDAF15377FFA2E00
(1685659527.601266) vcan0 103#1E7BC4337A9B0638
(1685659527.606359) vcan0 103#27B7141BE200787B
(1685659527.611796) vcan0 103#387B6531C438FB5C
(1685659527.616995) vcan0 103#D490350C3592DA7C
(1685659527.622123) vcan0 103#3284D35A84287B1F
(1685659527.627515) vcan0 103#34476C30DC7AE152
(1685659527.632877) vcan0 103#F4BD7A4FA8315927
(1685659527.638548) vcan0 103#6F70825C5FA61771
(1685659527.643672) vcan0 103#81132838458BA136
(1685659527.648805) vcan0 103#CA5FAD53CB801C13
(1685659527.654325) vcan0 103#7F3A7E27F94B512E
(1685659527.660003) vcan0 103#88C53671EE526900
(1685659527.665291) vcan0 103#6D47010D90320A29
(1685659527.670961) vcan0 103#67A2272629217B6D
(1685659527.676194) vcan0 103#A3343E5464523D5D
(1685659527.681482) vcan0 103#A91BAA6DC1AF0208
(1685659527.686770) vcan0 103#DEED4315D0D2BE08
(1685659527.691946) vcan0 103#A3B07A031669A946
(1685659527.697142) vcan0 103#940BBA657741B00F
(1685659527.702662) vcan0 103#4BFB8343C68F8D40
(1685659527.708355) vcan0 103#FC692B2F7F42F073
(1685659527.713521) vcan0 103#A20A6F13F027A67E
(1685659527.719356) vcan0 103#2774491B117BF16F
(1685659527.724449) vcan0 103#4FCEBD6FA9877153
(1685659527.729678) vcan0 103#57069326192E6B43
(1685659527.734784) vcan0 103#74088E66D640114E
(1685659527.741123) vcan0 103#127ABC71FCCDC457
(1685659527.747439) vcan0 103#C4937A4E80C1BD7E
(1685659527.753790) vcan0 103#8D00CF002B36A274
(1685659527.759302) vcan0 103#A9E2386C30350D55
(1685659527.765334) vcan0 103#8F88DF5152FEE259
(1685659527.771201) vcan0 103#F1E40F5D6E762367
(1685659527.777145) vcan0 103#22D1A16295958A60
(1685659527.782234) vcan0 103#84DFCC2DB6DC5B48
(1685659527.787564) vcan0 103#0CD73A70D0DA5071
(1685659527.793921) vcan0 103#7C6CE9080841661F
(1685659527.800032) vcan0 103#4F1D41651E77581C
(1685659527.805173) vcan0 103#F8680C1E77918A00
(1685659527.811209) vcan0 103#30F2490C4837CA0D
(1685659527.817175) vcan0 103#2019FC5387F8DC32
(1685659527.823224) vcan0 103#6165355194218A3A
(1685659527.829371) vcan0 103#5D39EE0074DFF142
(1685659527.834880) vcan0 103#90EF4E1222CD684F
(1685659527.841038) vcan0 103#F4A0AF411DF01D13
(1685659527.847374) vcan0 103#4D030B449D83E82D
(1685659527.852558) vcan0 103#4D252B68DD8BEA15
(1685659527.858903) vcan0 103#F081CB073F0A3B45
(1685659527.864162) vcan0 103#4B020E7D12536D6A
(1685659527.870501) vcan0 103#D49FC525CFE1DA2A
(1685659527.875935) vcan0 103#C92FC932E0760016
(1685659527.882275) vcan0 103#9FBC2B1C459CB23B
(1685659527.888183) vcan0 103#E9B76635EFD96C01
(1685659527.894521) vcan0 103#64130B58E1207353
(1685659527.900467) vcan0 103#666BF70194055564
(1685659527.906216) vcan0 103#29583D618684F355
(1685659527.912313) vcan0 103#1BFE31178BBD7232
(1685659527.918655) vcan0 103#1AA67D1078372018
(1685659527.924840) vcan0 103#FF9C6475AA95CC22
(1685659527.930163) vcan0 103#9A048967F33D1437
(1685659527.935560) vcan0 103#C885EA35E807942B
(1685659527.940750) vcan0 103#90C1FC6415AB151E
(1685659527.946424) vcan0 103#C5937E418043C86C
(1685659527.951670) vcan0 103#54B5506310968C3E
(1685659527.957003) vcan0 103#9396355728551609
(1685659527.962624) vcan0 103#DF7767695CC6FE09
(1685659527.968019) vcan0 103#09CC161F7F349305
(1685659527.974356) vcan0 103#A162B145F2837D54
(1685659527.979498) vcan0 103#6E0E00070576BC1D
(1685659527.985852) vcan0 103#D3A4F027D479F708
(1685659527.991355) vcan0 103#997B1102FDFC2D09
(1685659527.997696) vcan0 103#5AFEEA5EB4794319
(1685659528.002939) vcan0 103#88BAA03B74A4686F
(1685659528.008272) vcan0 103#2DB1633187570531
(1685659528.013343) vcan0 103#1E3A3512C7B5EC18
(1685659528.019416) vcan0 103#7A951968E6BF1F48
(1685659528.025163) vcan0 103#AFBD80440A57164D
(1685659528.031430) vcan0 103#FC6A35667451FF05
(1685659528.037762) vcan0 103#8B9ADE3950208649
(1685659528.044099) vcan0 103#84E78B441E311411
(1685659528.050439) vcan0 103#79759C52645FF32D
(1685659528.056077) vcan0 103#7AF7121B8241B371
(1685659528.061601) vcan0 103#E39386331B5AC460
(1685659528.067204) vcan0 103#74C5304651A2863A
(1685659528.073018) vcan0 103#21D0807E476A216E
(1685659528.079355) vcan0 103#251C7E43BA4B9200
(1685659528.085709) vcan0 103#44674F777F1A6922
(1685659528.092045) vcan0 103#6FC5D519CC21F032
(1685659528.097645) vcan0 103#F3BED1119C76394B
(1685659528.103989) vcan0 103#5379F56311F90624
(1685659528.109794) vcan0 103#632C2664CD0E0F4C
(1685659528.115152) vcan0 103#F8B8266C13EAA628
(1685659528.121496) vcan0 103#D8652519F4235C52
(1685659528.127480) vcan0 103#873BA62E63000453
(1685659528.133812) vcan0 103#4444E21B0C233273
(1685659528.140155) vcan0 103#81311864BDB97E6E
(1685659528.146491) vcan0 103#70822521FB282B7F
(1685659528.152459) vcan0 103#3FFB31605316AC54
(1685659528.158791) vcan0 103#1683EF5FB3C06226
(1685659528.164057) vcan0 103#A4B8320F3753705E
(1685659528.170396) vcan0 103#FB2A8414C9D4B052
(1685659528.175559) vcan0 103#F29E025F3F92D30B
(1685659528.181899) vcan0 103#48EF19756164D878
(1685659528.188233) vcan0 103#0CB4C33E3BAEEB06
(1685659528.194574) vcan0 103#FDDA11445F2DB922
(1685659528.199908) vcan0 103#4CA7F22A60073828
(1685659528.205888) vcan0 103#2D3CC86E44601917
(1685659528.211549) vcan0 103#73F1DE5005A2ED07
(1685659528.217882) vcan0 103#38847569FB2C857F
(1685659528.223552) vcan0 103#68A2F15A7DC85705
(1685659528.229886) vcan0 103#0750B772E9D3093F
(1685659528.236229) vcan0 103#3A82D67377D2DC13
(1685659528.242570) vcan0 103#E4FC343E7A7D0854
(1685659528.248254) vcan0 103#CAE88868FA7F241E
(1685659528.254609) vcan0 103#2D3E6B7A6EA1BB77
(1685659528.260275) vcan0 103#32D3947C2869EF0E
(1685659528.266622) vcan0 103#37766C4A2472975B
(1685659528.271862) vcan0 103#68FBC21A7F65863F
(1685659528.278195) vcan0 103#85D66F5474AF8659
(1685659528.283528) vcan0 103#BA13724682B18118
(1685659528.289863) vcan0 103#D3DC3F7C06BB6471
(1685659528.295345) vcan0 103#E2B8B9400019086B
(1685659528.300659) vcan0 103#4B1B7E0856AA9811
(1685659528.306065) vcan0 103#05BBF572839FF371
(1685659528.312401) vcan0 103#51D71D116D5DE74D
(1685659528.318013) vcan0 103#00684B775827D503
(1685659528.323538) vcan0 103#5631F10C3BEA216B
(1685659528.328942) vcan0 103#CFF9B1173A2E264B
(1685659528.335272) vcan0 103#B5672A3F99E23A00
(1685659528.341103) vcan0 103#35AE4A69E2A59539
(1685659528.346482) vcan0 103#0784F6776781DF65
(1685659528.352084) vcan0 103#0B0F85483EFA6242
(1685659528.358418) vcan0 103#8BF37641730A4863
(1685659528.364078) vcan0 103#BD5FE90110CAE615
(1685659528.370340) vcan0 103#E7B9CE3C77735B48
(1685659528.375561) vcan0 103#927B682EBA960E39
(1685659528.381203) vcan0 103#7D2EC0397434226F
(1685659528.387171) vcan0 103#BBAF1624C8493E42
(1685659528.392535) vcan0 103#CADEBA00C06A0C17
(1685659528.398666) vcan0 103#4CE931341BB6D811
(1685659528.403882) vcan0 103#2EC8F3644C517D2B
(1685659528.409599) vcan0 103#73DDAD1584F9E471
(1685659528.414763) vcan0 103#873B9F1642D75F2D
(1685659528.420938) vcan0 103#BF270B3D3CA3C955
(1685659528.427152) vcan0 103#DBB99A2DF4D55526
(1685659528.433502) vcan0 103#1F495F0FE23D9125
(1685659528.438896) vcan0 103#5B57350C2A58E457
(1685659528.445234) vcan0 103#2038F467E64AAC4D
(1685659528.450814) vcan0 103#9D622C3BDD97DD69
(1685659528.456390) vcan0 103#F6149363841CFB77
(1685659528.462024) vcan0 103#540B39328890FB11
(1685659528.468364) vcan0 103#3EB30931D239F96B
(1685659528.473476) vcan0 103#FCC41D01F9622055
(1685659528.479813) vcan0 103#9A83372EC7A3D801
(1685659528.485041) vcan0 103#BACD2C6CE66C6962
(1685659528.491379) vcan0 103#E259B113E8952051
(1685659528.496745) vcan0 103#33BEE60D56375F29
(1685659528.502256) vcan0 103#6C8F0543BAF98524
(1685659528.507416) vcan0 103#980EBF562BB71000
(1685659528.513751) vcan0 103#F79C4F7A74C85904
(1685659528.519245) vcan0 103#1F8D662616E6AE09
(1685659528.525581) vcan0 103#5606EB297AE49B32
(1685659528.530998) vcan0 103#403E9361773EDF11
(1685659528.536278) vcan0 103#602F4800DDA0BF1C
(1685659528.541620) vcan0 103#54D6BC7B5644DB63
(1685659528.547953) vcan0 103#61BDBA14A9E1F52D
(1685659528.553265) vcan0 103#DED4D6759F70C445
(1685659528.558459) vcan0 103#7B1BEF19DB99F476
(1685659528.564155) vcan0 103#99D3E41A159F2648
(1685659528.569244) vcan0 103#A23DCD7853A11107
(1685659528.575608) vcan0 103#FC0B902A84977E0C
(1685659528.581545) vcan0 103#3B3732582FCA7638
(1685659528.587885) vcan0 103#DACEDD35A7C6371B
(1685659528.594146) vcan0 103#E9C3FC5C73DD9C0C
(1685659528.599452) vcan0 103#D37D481BE0604C57
(1685659528.605563) vcan0 103#E7A5F610F20AAF41
(1685659528.611236) vcan0 103#F646FB603DACE13A
(1685659528.617577) vcan0 103#6DEF4A7436858E42
(1685659528.623243) vcan0 103#B4EAC04CCD1E9374
(1685659528.629579) vcan0 103#13264E5F09C17D48
(1685659528.634756) vcan0 103#24636E5874E30874
(1685659528.640886) vcan0 103#B2A273760238454E
(1685659528.646631) vcan0 103#1454CD392DBE6210
(1685659528.652987) vcan0 103#DDD13945AD27B254
(1685659528.658748) vcan0 103#425D89587F0F073E
(1685659528.664348) vcan0 103#00C9C35B3E691903
(1685659528.669708) vcan0 103#04A7854A3B00F633
(1685659528.674894) vcan0 103#6D33903BDE756300
(1685659528.680154) vcan0 103#E2C62D4F57F78C18
(1685659528.685665) vcan0 103#5153000DB544766A
(1685659528.690845) vcan0 103#3758D96F38F9F61D
(1685659528.697176) vcan0 103#A84F252C2E9FD450
(1685659528.702486) vcan0 103#76A5D858153F7020
(1685659528.708821) vcan0 103#642463132A909925
(1685659528.714321) vcan0 103#E25D0315784AB172
(1685659528.720660) vcan0 103#3351176E06C1716D
(1685659528.726343) vcan0 103#EC2DBA66E5F38A64
(1685659528.732212) vcan0 103#09F9B63B00828720
(1685659528.738055) vcan0 103#12B2ED74E6CAF000
(1685659528.744178) vcan0 103#ADA93975550F774D
(1685659528.750239) vcan0 103#66DAF73EAD72FD50
(1685659528.756160) vcan0 103#937890506A817D09
(1685659528.762290) vcan0 103#E872F30401AC200C
(1685659528.767402) vcan0 103#48F7E009CB392154
(1685659528.773604) vcan0 103#58A3AD249A4AE116
(1685659528.779916) vcan0 103#807E973E8FFB8614
(1685659528.785057) vcan0 103#D243D83428CEBC6A
(1685659528.791286) vcan0 103#BD9A5B6548E9B00D
(1685659528.796379) vcan0 103#3D0D2D0B22BFBE78
(1685659528.801849) vcan0 103#73794A33206B3020
(1685659528.807406) vcan0 103#9A09706BA6CA6121
(1685659528.813391) vcan0 103#262CA20D86372A52
(1685659528.819283) vcan0 103#8CBEEC052F255949
(1685659528.825577) vcan0 103#87B9B1729E70DA7A
(1685659528.830687) vcan0 103#16F0494A3463EB67
(1685659528.835775) vcan0 103#F37F51487CCA4109
(1685659528.841142) vcan0 103#E2D5E83887F8E118
(1685659528.847498) vcan0 103#E64BBF12CA48DC3D
(1685659528.853713) vcan0 103#88A402252E43A01C
(1685659528.860049) vcan0 103#9582FD11E047B049
(1685659528.866396) vcan0 103#C88D813316019550
(1685659528.872735) vcan0 103#6F43375E9BD15968
(1685659528.879075) vcan0 103#3ECF513B2DDE9243
(1685659528.884191) vcan0 103#E3BA0A767CDC7E46
(1685659528.889279) vcan0 103#4F9D513C56345529
(1685659528.894999) vcan0 103#9C47AF66E9A6C127
(1685659528.900315) vcan0 103#FDFEB64AC2735174
(1685659528.906627) vcan0 103#6FDEEB7989BDA350
(1685659528.911790) vcan0 103#F298AA3DF6979D6C
(1685659528.918126) vcan0 103#272E7E4B0889F407
(1685659528.923419) vcan0 103#2BFB88541BAECF13
(1685659528.928978) vcan0 103#845336110DD1710D
(1685659528.934262) vcan0 103#A2A6B12C6A9FF523
(1685659528.940286) vcan0 103#D7194E4B2A4BB451
(1685659528.945617) vcan0 103#98E295406D9C4B5D
(1685659528.951014) vcan0 103#0A93641B61701774
(1685659528.956349) vcan0 103#839DE02D79D69B79
(1685659528.962448) vcan0 103#FC41715CC16C3269
(1685659528.967570) vcan0 103#A6B42E3DDFFC7B52
(1685659528.972799) vcan0 103#3D49B12FF5518079
(1685659528.978353) vcan0 103#3631D17BD9906016
(1685659528.984324) vcan0 103#DEF8412133308846
(1685659528.990333) vcan0 103#9C04B20A4ED72D1B
(1685659528.996243) vcan0 103#BCED2B178E9D5C48
(1685659529.002583) vcan0 103#446FCB07E31BAA62
(1685659529.008696) vcan0 103#962651506F6A545C
(1685659529.013862) vcan0 103#FEC979761A7A8761
(1685659529.020198) vcan0 103#7C3BC669A0702B23
(1685659529.025481) vcan0 103#84197D0554551435
(1685659529.031831) vcan0 103#CABBDF741CFC1246
(1685659529.037006) vcan0 103#C1F15F12D44E4410
(1685659529.042127) vcan0 103#7D6C2A3A448F4040
(1685659529.048509) vcan0 103#4E25E00979AE9B16
(1685659529.054865) vcan0 103#05FC7229F4D90E47
(1685659529.060175) vcan0 103#59AB176943452459
(1685659529.065344) vcan0 103#EA2B8F408FDCE864
(1685659529.071684) vcan0 103#1CD6846FC824D161
(1685659529.077063) vcan0 103#C20C712BB8DA367A
(1685659529.083417) vcan0 103#16FCFE7C7EFA9C42
(1685659529.089764) vcan0 103#467893425B6BCA04
(1685659529.096120) vcan0 103#61164725DC9EE412
(1685659529.101988) vcan0 103#CAD51E6160E0C01B
(1685659529.107259) vcan0 103#F6186C744711E54A
(1685659529.112608) vcan0 103#0051EC3E7A32E979
(1685659529.118953) vcan0 103#9B66F97FCB0CCC33
(1685659529.125306) vcan0 103#972EFC3F5C585912
(1685659529.131356) vcan0 103#9F5B1044149B267A
(1685659529.136861) vcan0 103#A0E79952ED80F04D
(1685659529.143227) vcan0 103#8E49C210A5E30C7C
(1685659529.148813) vcan0 103#E25AFF14E7F4D979
(1685659529.154836) vcan0 103#E8283155CC868E55
(1685659529.160884) vcan0 103#76D1C25E05FFB544
(1685659529.166817) vcan0 103#94AB5F3738DE330A
(1685659529.172396) vcan0 103#BDD9EC3EABA75E34
(1685659529.178379) vcan0 103#B6D8D04C04528001
(1685659529.184417) vcan0 103#0613293917EF1772
(1685659529.189898) vcan0 103#E0F06414D0E8471A
(1685659529.195009) vcan0 103#77CFD80DD709D108
(1685659529.201023) vcan0 103#17FA2C657820C54C
(1685659529.206127) vcan0 103#513CBA02B2602665
(1685659529.211465) vcan0 103#432D9100E86AB642
(1685659529.216606) vcan0 103#0EB97F77E288A144
(1685659529.221761) vcan0 103#FD05DD3CAEA0194A
(1685659529.228104) vcan0 103#D00992128B4F9F4D
(1685659529.233209) vcan0 103#54842646B2649127
(1685659529.239556) vcan0 103#724479473CAD571B
(1685659529.245897) vcan0 103#7EEB1F7DE8153C26
(1685659529.252242) vcan0 103#41AC0D6012977F34
(1685659529.258591) vcan0 103#20F46F30FF85FA1E
(1685659529.264162) vcan0 103#BD3EDE68D6CC407D
(1685659529.270506) vcan0 103#03D87A20C3510722
(1685659529.276534) vcan0 103#EDBB586FE3C8DF34
(1685659529.282569) vcan0 103#943A4F3C658B317D
(1685659529.287747) vcan0 103#BAD2B03DAB347C21
(1685659529.293520) vcan0 103#DDABF6490C0F6B40
(1685659529.298684) vcan0 103#5E95A20620D9874A
(1685659529.304022) vcan0 103#F47921036C4E227E
(1685659529.309396) vcan0 103#0262290FF17FFE3F
(1685659529.314729) vcan0 103#1BEF3B48D26BBB21
(1685659529.321097) vcan0 103#7CCF9D0D6F73620E
(1685659529.327467) vcan0 103#84D04C49EE131755
(1685659529.333823) vcan0 103#AB20BA2902BC6C46
(1685659529.339582) vcan0 103#D629537BEDCCC709
(1685659529.345526) vcan0 103#1553EC7AF61DC32B
(1685659529.351862) vcan0 103#EC52C228D291CA63
(1685659529.358206) vcan0 103#CCEA0329EF2A3D49
(1685659529.364549) vcan0 103#96E3D105BAA65C18
(1685659529.370893) vcan0 103#D2F31C7E2A1E2142
(1685659529.377241) vcan0 103#1F328E158DC6CD3B
(1685659529.383589) vcan0 103#D5529D63FCDD845F
(1685659529.389647) vcan0 103#99D5387C33E83F6A
(1685659529.395996) vcan0 103#1CB70C2A8D4F5A7F
(1685659529.402387) vcan0 103#A03662681E193639
(1685659529.408488) vcan0 103#7FCF583FBB259E30
(1685659529.414126) vcan0 103#F184F15AFB9EF64C
(1685659529.419637) vcan0 103#2A99003F75553E24
(1685659529.426026) vcan0 103#EAB20D22D5B9BA68
(1685659529.432052) vcan0 103#7811AB6AC0DC601D
(1685659529.437207) vcan0 103#C28682728D649765
(1685659529.443592) vcan0 103#B7FA2349AED9441B
(1685659529.449786) vcan0 103#5FF6614983E52772
(1685659529.456146) vcan0 103#9D048264F5D9334F
(1685659529.462508) vcan0 103#3D8C840A70F89E62
(1685659529.468876) vcan0 103#1FF854115CBE1220
(1685659529.475238) vcan0 103#FDBE6C1EF54AF274
(1685659529.481607) vcan0 103#589C977F9694A51A
(1685659529.487956) vcan0 103#2833325F7453A429
(1685659529.494339) vcan0 103#23E4FF19C8699447
(1685659529.500719) vcan0 103#936CDA62A2B35859
(1685659529.507134) vcan0 103#838F327884F1CB3D
(1685659529.512251) vcan0 103#9E524F26AD283337
(1685659529.518636) vcan0 103#F9460A6288055D48
(1685659529.523886) vcan0 103#83E2ED1F7158B54C
(1685659529.530254) vcan0 103#48E2BD6545697012
(1685659529.536308) vcan0 103#FEBC4C32FFDCE12E
(1685659529.542671) vcan0 103#F442B52D5EB3AE7B
(1685659529.548399) vcan0 103#83C2092191473712
(1685659529.554526) vcan0 103#538DE24AC04E8E2B
(1685659529.560228) vcan0 103#0140D6747385375C
(1685659529.566198) vcan0 103#1D0DA14BFEFE4213
(1685659529.572266) vcan0 103#68D0295175A9384B
(1685659529.577750) vcan0 103#9493E82D90035C30
(1685659529.583146) vcan0 103#EAFCDC74B877E847
(1685659529.589508) vcan0 103#596DF0777D69B757
(1685659529.595889) vcan0 103#5A2B4121DCFC2270
(1685659529.601980) vcan0 103#015B8315F87D9047
(1685659529.607563) vcan0 103#8A255627FAA18D77
(1685659529.613495) vcan0 103#8083ED0F0D084447
(1685659529.618945) vcan0 103#6CFA4244C965AB75
(1685659529.625340) vcan0 103#5271B4596AB78F76
(1685659529.630501) vcan0 103#C8428D2446B46907
(1685659529.635765) vcan0 103#C86A3E724B059745
(1685659529.641534) vcan0 103#D8FBA0191CF8203D
(1685659529.647445) vcan0 103#0C542571D93B770E
(1685659529.653800) vcan0 103#8F7D58192961C63C
(1685659529.659470) vcan0 103#D83ABA21F74D826A
(1685659529.665819) vcan0 103#9E0AFF076CCEA24F
(1685659529.670883) vcan0 103#8751DE1A8807DC7C
(1685659529.677255) vcan0 103#24468B17E0BECE12
(1685659529.682718) vcan0 103#057193547F71CC38
(1685659529.688279) vcan0 103#BDBBF10206CC166A
(1685659529.693666) vcan0 103#77EF5C0047E1472A
(1685659529.700047) vcan0 103#016EA461F8724A10
(1685659529.705285) vcan0 103#54E98B716D68E725
(1685659529.711233) vcan0 103#C1D8F505A65A404B
(1685659529.716393) vcan0 103#D71F771C891B832A
(1685659529.721895) vcan0 103#ED0EAA52A08AB50E
(1685659529.727085) vcan0 103#D5201A70C50A4B6C
(1685659529.732487) vcan0 103#BC82D64BE1743F61
(1685659529.737622) vcan0 103#9E46C27A4B002F65
(1685659529.743146) vcan0 103#0AD6051E76817C1C
(1685659529.748360) vcan0 103#424EB14FA8E00426
(1685659529.753532) vcan0 103#E34F1F6CC99F8F6A
(1685659529.758680) vcan0 103#31E8E0220796AA03
(1685659529.763880) vcan0 103#AA5E5E7D36597477
(1685659529.769132) vcan0 103#8607773C671A5000
(1685659529.774331) vcan0 103#3D258B61FEF6D33C
(1685659529.780378) vcan0 103#AEFB972A3E932F43
(1685659529.785895) vcan0 103#F6691E4D02E5231C
(1685659529.792257) vcan0 103#ABFB1669B7421453
(1685659529.797550) vcan0 103#A83F6467821B8E05
(1685659529.803896) vcan0 103#405E977D954E0E3A
(1685659529.809398) vcan0 103#22A64314157FB16D
(1685659529.814854) vcan0 103#5A595926DE281A60
(1685659529.820227) vcan0 103#F6F3F04EF99F1B21
(1685659529.826019) vcan0 103#2929494500CAF66C
(1685659529.832370) vcan0 103#6F21983D6B77FA14
(1685659529.838229) vcan0 103#A9AAFB125271B729
(1685659529.844579) vcan0 103#35178A7FDA92DC35
(1685659529.849724) vcan0 103#5A07622DDF75E87C
(1685659529.855585) vcan0 103#10EC502DE00ED969
(1685659529.860735) vcan0 103#4690387D4D11DC0E
(1685659529.865882) vcan0 103#DE05AD26F48BD027
(1685659529.871262) vcan0 103#8BA40B52D46FCB73
(1685659529.876375) vcan0 103#F670F44336A0223B
(1685659529.881784) vcan0 103#8BB2DF469EB0582B
(1685659529.887349) vcan0 103#B9BBB040CC107744
(1685659529.893679) vcan0 103#34FF6665DB61F454
(1685659529.898847) vcan0 103#E18F28328E58C00B
(1685659529.904932) vcan0 103#BA8A0E35D8831901
(1685659529.910204) vcan0 103#87F8DB2CE3B3577A
(1685659529.916155) vcan0 103#D84D106EF719746A
(1685659529.921522) vcan0 103#4F2B520F81F80B01
(1685659529.927368) vcan0 103#498B2B148442DC0E
(1685659529.932501) vcan0 103#5B8BE836A3928D41
(1685659529.938349) vcan0 103#63B8C40B6C773964
(1685659529.944558) vcan0 103#84A1662BA948FD08
(1685659529.950172) vcan0 103#B988157362A71352
(1685659529.955524) vcan0 103#9DD4CD30452D2145
(1685659529.961034) vcan0 103#3717DF459345C274
(1685659529.966932) vcan0 103#7BCD4300C2C9BE0C
(1685659529.971989) vcan0 103#31F61A203489F440
(1685659529.977112) vcan0 103#8EDA355165F58105
(1685659529.982269) vcan0 103#10EBE815706A5E03
(1685659529.988156) vcan0 103#F44D4211CA75F74A
(1685659529.994503) vcan0 103#48EE77047B461E3E
(1685659530.000844) vcan0 103#AD294F45203C8872
(1685659530.007207) vcan0 103#72609228FC54A154
(1685659530.013560) vcan0 103#A2349473BCEBBD3C
(1685659530.018815) vcan0 103#80977D63FDBF7C2A
(1685659530.023962) vcan0 103#5F7E4B7EE34F426F
(1685659530.029158) vcan0 103#6937B60EE31FB229
(1685659530.034936) vcan0 103#8C983F7823C0CB01
(1685659530.040415) vcan0 103#46C7C57B296D0D29
(1685659530.046428) vcan0 103#68EDEC467DDEA441
(1685659530.051837) vcan0 103#BCB2CF1DE3BA3047
(1685659530.057226) vcan0 103#3FA8634EEEA8EA3D
(1685659530.062344) vcan0 103#18442508CE82991F
(1685659530.068151) vcan0 103#539E6C43282F0E1E
(1685659530.073361) vcan0 103#3EEDF72247ECAE54
(1685659530.078624) vcan0 103#F2A4056986DB6F27
(1685659530.084613) vcan0 103#C332CD129FCE542E
(1685659530.089764) vcan0 103#A617F81935935F3B
(1685659530.095459) vcan0 103#9C23F602484C8C0D
(1685659530.101832) vcan0 103#F17E1D781CBB7366
(1685659530.107446) vcan0 103#460C093851FD6876
(1685659530.113526) vcan0 103#000BB655AF43BF46
(1685659530.118626) vcan0 103#341D1B208CA3F54D
(1685659530.124004) vcan0 103#D2038B487AE4E01B
(1685659530.129530) vcan0 103#B61003773AF1770F
(1685659530.135872) vcan0 103#F7C2855D72C3D214
(1685659530.141359) vcan0 103#1EACA856376BE92B
(1685659530.147703) vcan0 103#606CBD5236F0CD5E
(1685659530.153576) vcan0 103#05EE824BB40A2A16
(1685659530.158865) vcan0 103#5E1FDC7C43DB7A6E
(1685659530.164948) vcan0 103#FBF6D86A50C4E165
(1685659530.170351) vcan0 103#C9B6EA15BE29A67D
(1685659530.176059) vcan0 103#EF9236146FCEE22F
(1685659530.182425) vcan0 103#F4BC05398BB62C17
(1685659530.187976) vcan0 103#B81A6F3DE53B2331
(1685659530.194335) vcan0 103#A871A07DFE267875
(1685659530.199588) vcan0 103#36398C27A87C5653
(1685659530.204914) vcan0 103#AD6A373C6B56A747
(1685659530.210185) vcan0 103#34204C21806EC204
(1685659530.215867) vcan0 103#E53A8863EA304F18
(1685659530.222223) vcan0 103#BA5F3A14DDFD0D41
(1685659530.228477) vcan0 103#5DF4212DD80BE36A
(1685659530.234174) vcan0 103#1469F76CBD60DF7F
(1685659530.240525) vcan0 103#0EFCB04919577A38
(1685659530.245632) vcan0 103#716B09166C1B8D46
(1685659530.252014) vcan0 103#5C32F5266D62E200
(1685659530.257384) vcan0 103#BCDF6E2C25E9DF3C
(1685659530.263275) vcan0 103#2B8C887EAC72A540
(1685659530.269632) vcan0 103#94B7C26C1F498E37
(1685659530.275216) vcan0 103#3729D2574CD2312A
(1685659530.281141) vcan0 103#0585B168DF9A7255
(1685659530.286813) vcan0 103#4AF9A91F3BBE3D10
(1685659530.293015) vcan0 103#8717C928F863E15B
(1685659530.298602) vcan0 103#A614E557BC37154A
(1685659530.304772) vcan0 103#78D2A3608C4F6D3B
(1685659530.309965) vcan0 103#A66864623232DE74
(1685659530.316337) vcan0 103#694D7B7C035D860F
(1685659530.321471) vcan0 103#0B3EC15F7DB67269
(1685659530.327831) vcan0 103#C1BD650F193A7229
(1685659530.333216) vcan0 103#960DED2132296F25
(1685659530.339587) vcan0 103#8655FF6FF23FE248
(1685659530.344964) vcan0 103#9F8B512642356E1C
(1685659530.351312) vcan0 103#1729C205CB17DA24
(1685659530.356583) vcan0 103#EEA7135DABE08472
(1685659530.362014) vcan0 103#EA60685C26D1E534
(1685659530.367967) vcan0 103#F8B2B61CEFE51945
(1685659530.373291) vcan0 103#056C580A42AC603C
(1685659530.379413) vcan0 103#2BA457558D832133
(1685659530.385651) vcan0 103#3A104218D1B83C2D
(1685659530.392082) vcan0 103#49BB367DB2E2E578
(1685659530.397298) vcan0 103#5D08AA68EF239B5F
(1685659530.402858) vcan0 103#E514C46DC6552565
(1685659530.409046) vcan0 103#F380216FF052854D
(1685659530.414424) vcan0 103#430C984EB43E877E
(1685659530.420622) vcan0 103#098DF776D9198570
(1685659530.425755) vcan0 103#E667F6238FE2F666
(1685659530.431193) vcan0 103#CB59673986F3474A
(1685659530.437535) vcan0 103#D2176503E282293F
(1685659530.443405) vcan0 103#510B226FC0BF7860
(1685659530.449814) vcan0 103#8E63AE313B6C8A4B
(1685659530.456205) vcan0 103#E6905E158616654E
(1685659530.462581) vcan0 103#2B52A410ECFCB61F
(1685659530.467870) vcan0 103#C8C2C50A56F6FB65
(1685659530.474229) vcan0 103#7980D85203D30723
(1685659530.479715) vcan0 103#27AF3813C23B0F50
(1685659530.485581) vcan0 103#B5B5ED1B85B7E27B
(1685659530.491977) vcan0 103#B15FAA2F9ACAB109
(1685659530.497419) vcan0 103#4B0D0861A4E0CB1E
(1685659530.503784) vcan0 103#8A1D37578F19A02F
(1685659530.510190) vcan0 103#581F531D94AA2E4E
(1685659530.516400) vcan0 103#683325203F874941
(1685659530.522774) vcan0 103#238D2535348D8C59
(1685659530.528793) vcan0 103#C57A910BF5A48A38
(1685659530.535194) vcan0 103#1610B6181686B37A
(1685659530.541575) vcan0 103#B6640319A473644A
(1685659530.547947) vcan0 103#51F23D469CF5612E
(1685659530.554337) vcan0 103#2A8AC9187C44E256
(1685659530.560705) vcan0 103#88F2184EF34C8F23
(1685659530.567085) vcan0 103#D23ADE3C0173F120
(1685659530.573465) vcan0 103#F61F9746FAE91650
(1685659530.579852) vcan0 103#C3AE0071ABD58462
(1685659530.586239) vcan0 103#7FA1F94B750EAB20
(1685659530.592363) vcan0 103#46A0366CCAAE012D
(1685659530.598756) vcan0 103#19EF763FD0BD6D43
(1685659530.605137) vcan0 103#59C8A15C720ECA5C
(1685659530.611508) vcan0 103#64689C11C2FBC67C
(1685659530.617893) vcan0 103#B195131E88F5C146
(1685659530.623511) vcan0 103#F68853567610A529
(1685659530.629894) vcan0 103#7D9A4C7F0C99096F
(1685659530.635901) vcan0 103#8C96582433FF4F18
(1685659530.641342) vcan0 103#B10C6E39DD88966A
(1685659530.647669) vcan0 103#D0F4B146DB963752
(1685659530.652838) vcan0 103#5ACD784158E7CA14
(1685659530.659221) vcan0 103#CEE3C6752C08577E
(1685659530.664555) vcan0 103#5A5ABC35C4035E3C
(1685659530.670942) vcan0 103#26F26D4E1D09BD26
(1685659530.676631) vcan0 103#70D9E21EA593671A
(1685659530.685155) vcan0 103#92176847B679190B
(1685659530.691578) vcan0 103#70426947AC06DF06
(1685659530.696812) vcan0 103#8637874EC90A0B24
(1685659530.701988) vcan0 103#1E15A963EB9F2360
(1685659530.707415) vcan0 103#8B06D220CFAABC01
(1685659530.712562) vcan0 103#7395E526818F2577
(1685659530.718948) vcan0 103#45BB612BF02F3226
(1685659530.724977) vcan0 103#8E282F66D151BA4F
(1685659530.730152) vcan0 103#242F823E3F359D1F
(1685659530.735743) vcan0 103#AEDA503AF4233405
(1685659530.740944) vcan0 103#1ACCD47108A8C97B
(1685659530.747308) vcan0 103#4C0BFF19E9AF9B67
(1685659530.752736) vcan0 103#35B0207AA665BB4F
(1685659530.759099) vcan0 103#ADB3F9235BA28E48
(1685659530.764443) vcan0 103#C46E78761D8DDC42
(1685659530.770818) vcan0 103#0136F6625686E03D
(1685659530.776015) vcan0 103#D306F64D71785F2A
(1685659530.781233) vcan0 103#028DBF445A3E7D1C
(1685659530.786423) vcan0 103#3A836A4E20A26828
(1685659530.792766) vcan0 103#45DEA07CC6893C6F
(1685659530.798118) vcan0 103#EF4C252AB8738623
(1685659530.804034) vcan0 103#4719626634088755
(1685659530.809570) vcan0 103#A8A3B849D541914C
(1685659530.814937) vcan0 103#055A4125CCD23A08
(1685659530.820558) vcan0 103#14772E6CB434925F
(1685659530.826858) vcan0 103#C0F66E0D2F43035E
(1685659530.832128) vcan0 103#BCDC5B5B0D026E27
(1685659530.837928) vcan0 103#18F39E45F18C7C55
(1685659530.843748) vcan0 103#B3672977C5A69869
(1685659530.849872) vcan0 103#4D2F0B1E77D6A16D
(1685659530.854957) vcan0 103#E333752C4E650101
(1685659530.861150) vcan0 103#CE5C822BB63A6B7A
(1685659530.866694) vcan0 103#BFDD602BD0E94170
(1685659530.871916) vcan0 103#1079E816F960CB79
(1685659530.877664) vcan0 103#F18BAA1855578913
(1685659530.883092) vcan0 103#BFEA0769E0D8CF42
(1685659530.889439) vcan0 103#0DCB0F3707046A4F
(1685659530.895271) vcan0 103#15E15618B66EC800
(1685659530.901616) vcan0 103#DC45FB1B1A3B983D
(1685659530.906833) vcan0 103#82410309F1BC2908
(1685659530.913175) vcan0 103#CE6F2A1D43387216
(1685659530.918577) vcan0 103#20002D668B4C8678
(1685659530.925002) vcan0 103#503AE03D38F3CB2B
(1685659530.930779) vcan0 103#7CD9024E03A20935
(1685659530.935918) vcan0 103#FD996415C9080E6C
(1685659530.941719) vcan0 103#7B78AB22E0CDD941
(1685659530.948099) vcan0 103#176E0F6D49D52D4E
(1685659530.954393) vcan0 103#9708453CD64B7018
(1685659530.959637) vcan0 103#19BF6F3EA7812D53
(1685659530.965995) vcan0 103#D0AC3B120A4B1A57
(1685659530.971575) vcan0 103#FDD8B6668F97437B
(1685659530.977935) vcan0 103#EB23EA190AA4C61D
(1685659530.983904) vcan0 103#969BAD4A00054132
(1685659530.990257) vcan0 103#C0128F1E73E1A866
(1685659530.996407) vcan0 103#1A40D96F43549227
(1685659531.002758) vcan0 103#649ED26EE9AF030D
(1685659531.008342) vcan0 103#868C043E849EFF54
(1685659531.014705) vcan0 103#74FC8905D6C6E47B
(1685659531.021062) vcan0 103#BC91CB00F0D58C53
(1685659531.026387) vcan0 103#D968EE30B92B3016
(1685659531.032306) vcan0 103#BADE9A3F54E19953
(1685659531.037788) vcan0 103#9AF90958D14CAA2C
(1685659531.044153) vcan0 103#9DB6C72131024F14
(1685659531.049902) vcan0 103#A8981A45B7753760
(1685659531.056261) vcan0 103#D8837C6778455657
(1685659531.061362) vcan0 103#C1C05137D55C334E
(1685659531.067721) vcan0 103#07DD9952ACE43B51
(1685659531.074177) vcan0 103#E000FA6B9E78471D
(1685659531.079479) vcan0 103#ACE97C03A013890A
(1685659531.085845) vcan0 103#115AF003C7295673
(1685659531.091331) vcan0 103#E3671B3275F8C272
(1685659531.097714) vcan0 103#B0D9590069F41F70
(1685659531.103536) vcan0 103#F996C24724D6E305
(1685659531.109900) vcan0 103#3FBB046CB5288E48
(1685659531.116238) vcan0 103#14AC70591924F31C
(1685659531.121394) vcan0 103#6E54BE5ECE8A0B19
(1685659531.127745) vcan0 103#6D058D70084EC836
(1685659531.133057) vcan0 103#A0D7B5450BBC5412
(1685659531.139406) vcan0 103#3950174B4870D00A
(1685659531.144947) vcan0 103#C2318C7212D49332
(1685659531.151295) vcan0 103#C0B5266283F2DD29
(1685659531.157221) vcan0 103#E730C700C792C034
(1685659531.163577) vcan0 103#30D7197BC731C16C
(1685659531.169919) vcan0 103#650B0852DCC0967E
(1685659531.175115) vcan0 103#68454A777665F855
(1685659531.181473) vcan0 103#A3EAEC714BAD6529
(1685659531.187818) vcan0 103#EB5DBB4853C44672
(1685659531.194175) vcan0 103#B5A18519E4F47D10
(1685659531.200174) vcan0 103#779A2A78F45C8A05
(1685659531.209304) vcan0 103#991D0C598C469B51
(1685659531.215484) vcan0 103#0D817D220872CA37
(1685659531.221012) vcan0 103#5AD1A66A7B860A13
(1685659531.226788) vcan0 103#10C0926EFAA85C30
(1685659531.232406) vcan0 103#86425F254A10AA39
(1685659531.238828) vcan0 103#42192D3B4874EB17
(1685659531.245547) vcan0 103#5CE43D6C02CF531D
(1685659531.250655) vcan0 103#CB66C9414315056D
(1685659531.256372) vcan0 103#CA611452FB3DE33C
(1685659531.262747) vcan0 103#0B47C6592F6D1C24
(1685659531.268368) vcan0 103#D8FE793B738C1051
(1685659531.273799) vcan0 103#A6D2147A7BE9662D
(1685659531.278903) vcan0 103#BE39767A9130D042
(1685659531.284181) vcan0 103#CFADAD1F73DBFB13
(1685659531.289280) vcan0 103#76254E534648D817
(1685659531.295504) vcan0 103#683886190F435A2C
(1685659531.300610) vcan0 103#D28E736975B9033C
(1685659531.306900) vcan0 103#17B524642D601A54
(1685659531.312330) vcan0 103#F03F0E4F2875B752
(1685659531.318487) vcan0 103#2709770476826D74
(1685659531.323810) vcan0 103#7285610C6A22A43F
(1685659531.330169) vcan0 103#BEF6580CCE699F78
(1685659531.335275) vcan0 103#6CF1F75C8A5D224E
(1685659531.341216) vcan0 103#117FA46536530C2F
(1685659531.346417) vcan0 103#859B050B1CC66A3F
(1685659531.351554) vcan0 103#66C028535D9A7F46
(1685659531.357894) vcan0 103#8F527B100C933D4D
(1685659531.364231) vcan0 103#D983E6734E8CF10A
(1685659531.370598) vcan0 103#9DC30D10A8319413
(1685659531.376980) vcan0 103#C167ED1E13E95B63
(1685659531.383337) vcan0 103#EE796C2B29A07338
(1685659531.389194) vcan0 103#232CB60FC108E014
(1685659531.394978) vcan0 103#9F5977743AE1DA73
(1685659531.400089) vcan0 103#EE68FA688F998543
(1685659531.406473) vcan0 103#625692461572716D
(1685659531.412855) vcan0 103#061CF337D4DBF352
(1685659531.419209) vcan0 103#7F94152DC4124C44
(1685659531.424393) vcan0 103#A245934BEC850D0A
(1685659531.430739) vcan0 103#4E706E12B4C43731
(1685659531.436062) vcan0 103#22D91939D40B741D
(1685659531.442423) vcan0 103#D08AA2708899420C
(1685659531.448007) vcan0 103#31A6F36360DD1D01
(1685659531.454385) vcan0 103#942C80590A2ADA57
(1685659531.460445) vcan0 103#AE690F0C32F08D69
(1685659531.466836) vcan0 103#B25B6E6B6FD1FC2A
(1685659531.471952) vcan0 103#45D9E94CA1D5DA16
(1685659531.477530) vcan0 103#997170636805A05C
(1685659531.483600) vcan0 103#62DEBA2B38CBE757
(1685659531.489888) vcan0 103#A3E67A505047B514
(1685659531.495033) vcan0 103#C7646D1B053D0D17
(1685659531.500513) vcan0 103#65B92602CD806053
(1685659531.505974) vcan0 103#DA18016AE54D3C2F
(1685659531.511178) vcan0 103#9293AC177C5E9435
(1685659531.516348) vcan0 103#D1D34939E0031B2A
(1685659531.521757) vcan0 103#3023CC66F3AC6372
(1685659531.527580) vcan0 103#B40F8F4701AE6E57
(1685659531.532742) vcan0 103#7C46A67EE6B5822B
(1685659531.538304) vcan0 103#618B8C5810732658
(1685659531.544361) vcan0 103#F0DF5C030FF59B64
(1685659531.549514) vcan0 103#4263B441A33BCB6E
(1685659531.555867) vcan0 103#7EC6980F883C9E0E
(1685659531.560968) vcan0 103#4411A60517380973
(1685659531.566136) vcan0 103#F0413E6BA6EF6031
(1685659531.572392) vcan0 103#4F03F14A9328B93B
(1685659531.578304) vcan0 103#F636164617685E66
(1685659531.584328) vcan0 103#9965C6525BF03C48
(1685659531.589465) vcan0 103#E4E8BE39737EC73C
(1685659531.595368) vcan0 103#403E7977767C6B51
(1685659531.601261) vcan0 103#EFDC5B721112C330
(1685659531.607269) vcan0 103#5780867B20002859
(1685659531.612382) vcan0 103#05BF26230B901543
(1685659531.618236) vcan0 103#21AE96308105CD21
(1685659531.623709) vcan0 103#F145986E82392309
(1685659531.629151) vcan0 103#9178F379E225F571
(1685659531.634273) vcan0 103#912EBF6DD4DBA73B
(1685659531.640633) vcan0 103#8561C0600FF5577D
(1685659531.646006) vcan0 103#5C18464AC9726666
(1685659531.651230) vcan0 103#272D61704C5A8435
(1685659531.657647) vcan0 103#6F62C7177630523B
(1685659531.663516) vcan0 103#E0823D716599DD5D
(1685659531.669377) vcan0 103#8D98B02179E80344
(1685659531.674563) vcan0 103#C0891A2672816F5B
(1685659531.680231) vcan0 103#EC66CB0001C8931D
(1685659531.685370) vcan0 103#E8FDDA2CDB432773
(1685659531.691567) vcan0 103#12DA564E3F7E6128
(1685659531.697072) vcan0 103#FB434F4C17997D71
(1685659531.702366) vcan0 103#4B0E776B1CF2E57C
(1685659531.707463) vcan0 103#989E4A133C540F5A
(1685659531.712601) vcan0 103#9E2B09062A173E0D
(1685659531.718058) vcan0 103#1E7A044C2F5AC873
(1685659531.724410) vcan0 103#FEF2E548A3DBC42C
(1685659531.730229) vcan0 103#3F4F20715A0B2C13
(1685659531.736583) vcan0 103#6C4E2B13667C8161
(1685659531.741970) vcan0 103#A665B048DBB0F22A
(1685659531.747999) vcan0 103#DCACD31C86E8ED39
(1685659531.753562) vcan0 103#404AD0086A45843E
(1685659531.759022) vcan0 103#FFD0F17D01D4EA2E
(1685659531.764176) vcan0 103#DCC6F319EB37BD7E
(1685659531.769299) vcan0 103#029C7E4CC4C4CE46
(1685659531.774386) vcan0 103#C77BE4711476D51A
(1685659531.780018) vcan0 103#0443306FC2BF333E
(1685659531.785789) vcan0 103#2C0F530C4F51A75A
(1685659531.791495) vcan0 103#DFB1193BC4AD9D1F
(1685659531.797357) vcan0 103#8BA5B6347DDD2241
(1685659531.803091) vcan0 103#EEC4DB2CAA1FBB00
(1685659531.808871) vcan0 103#AD37EB34ECB7C175
(1685659531.814223) vcan0 103#4DFB7F2DEC860B26
(1685659531.820597) vcan0 103#46C3ED08BA49AB40
(1685659531.826701) vcan0 103#52038D07ED289E51
(1685659531.831795) vcan0 103#95FA9D6B2EB06024
(1685659531.837502) vcan0 103#73118C0BD6446E74
(1685659531.842940) vcan0 103#98F5E46273E27D09
(1685659531.848163) vcan0 103#D718592374BCD87C
(1685659531.853272) vcan0 103#5E1A3B08D9B4D76F
(1685659531.858381) vcan0 103#3981A74325961F7A
(1685659531.863495) vcan0 103#ED2AAD0A3DC4D732
(1685659531.868674) vcan0 103#E8555338193A0017
(1685659531.875013) vcan0 103#8C157F0DC7076D73
(1685659531.880125) vcan0 103#DEE79D3617BB3542
(1685659531.885251) vcan0 103#44E58F34CCAC7963
(1685659531.890358) vcan0 103#C1DAF042F11C7B69
(1685659531.896173) vcan0 103#B9643B590FD67070
(1685659531.901390) vcan0 103#DDA3860FFF272962
(1685659531.907732) vcan0 103#C91F1C312FA71317
(1685659531.912857) vcan0 103#EC50C7335E1ABA1C
(1685659531.919201) vcan0 103#5E57743B6062533F
(1685659531.924349) vcan0 103#345F2811F64C591E
(1685659531.929484) vcan0 103#D344D1480B788134
(1685659531.934659) vcan0 103#6B09321B315F0C51
(1685659531.940363) vcan0 103#E42C5924A48AD95E
(1685659531.946201) vcan0 103#57F52B4BD257062F
(1685659531.951340) vcan0 103#E14EB1113F4B7F03
(1685659531.956910) vcan0 103#EB9106466D64301F
(1685659531.962037) vcan0 103#0653EC76C979A47C
(1685659531.967289) vcan0 103#841F66614A387C2B
(1685659531.972579) vcan0 103#96261E6046FA5624
(1685659531.977715) vcan0 103#3C55F7144F8B5939
(1685659531.982930) vcan0 103#55D0C71419F97D24
(1685659531.989057) vcan0 103#4EB3821B1EF0E345
(1685659531.994315) vcan0 103#49A0913B3B044A4F
(1685659531.999442) vcan0 103#7C0A9E62A7F70577
(1685659532.005280) vcan0 103#9B669D0EB169C673
(1685659532.011036) vcan0 103#9D445F156EAB6E57
(1685659532.016316) vcan0 103#BCE14728084E9130
(1685659532.021966) vcan0 103#9F0A7B28A10EA14C
(1685659532.027694) vcan0 103#ACD86A0FF6FFA673
(1685659532.033190) vcan0 103#7366A77B8D271C21
(1685659532.038712) vcan0 103#354B26775EF8AD41
(1685659532.043922) vcan0 103#FA8B4C403B9E126E
(1685659532.049133) vcan0 103#2872523E7FABB221
(1685659532.054427) vcan0 103#86D68E19BE98701E
(1685659532.059626) vcan0 103#C5A50946C22B862E
(1685659532.065319) vcan0 103#0D24CA571A76D15A
(1685659532.071205) vcan0 103#DB2404535BD74C73
(1685659532.077221) vcan0 103#3866B52024C5950E
(1685659532.082356) vcan0 103#96DB9642B4705303
(1685659532.088192) vcan0 103#CBBC9B0531423451
(1685659532.093848) vcan0 103#65DA19776901FB1A
(1685659532.099801) vcan0 103#9FEDA22822BC611F
(1685659532.105034) vcan0 103#714F8C4B3FF81D51
(1685659532.110770) vcan0 103#C3CA026C1E28F75A
(1685659532.116341) vcan0 103#35F8C4443631AA67
(1685659532.121901) vcan0 103#AB4F137C6B43EB3B
(1685659532.127216) vcan0 103#94295829A6DB5F3C
(1685659532.132494) vcan0 103#A6E1FD29BC9BAA67
(1685659532.137586) vcan0 103#2587125E2CB88C43
(1685659532.142718) vcan0 103#7A341B06EA2C1C24
(1685659532.148321) vcan0 103#EEE312728758E55D
(1685659532.153433) vcan0 103#04A3ED7ECA081745
(1685659532.159272) vcan0 103#E32F32513C09A31F
(1685659532.164458) vcan0 103#EECDAC53790BC913
(1685659532.169920) vcan0 103#F079F622BA8A4859
(1685659532.175179) vcan0 103#AB4DFD645654101A
(1685659532.180458) vcan0 103#238C43744A3BA00D
(1685659532.185770) vcan0 103#7810723994DBCF3F
(1685659532.190971) vcan0 103#8933BE5E3BDB7425
(1685659532.196215) vcan0 103#B203C71ABF2B8323
(1685659532.202068) vcan0 103#710C1F0D5E53DA16
(1685659532.207493) vcan0 103#2A6F6E5F05367736
(1685659532.213220) vcan0 103#042F3A53D0506C09
(1685659532.218542) vcan0 103#C2D1211E29B64C31
(1685659532.224001) vcan0 103#FD08F94C3C063D24
(1685659532.229283) vcan0 103#13E36855EBEC0B3F
(1685659532.234519) vcan0 103#C45E220217865654
(1685659532.239750) vcan0 103#B5F52204A78E5453
(1685659532.244853) vcan0 103#538FF973A4C3CF57
(1685659532.250272) vcan0 103#209A1D674309F016
(1685659532.255367) vcan0 103#5E4E1831CBE71A4C
(1685659532.261119) vcan0 103#995D003181DA5B25
(1685659532.267144) vcan0 103#1623BB59116E726A
(1685659532.272450) vcan0 103#15B62B659F567938
(1685659532.278812) vcan0 103#4C49E70FC8B9F27F
(1685659532.284243) vcan0 103#5E82FC5BBD55061D
(1685659532.290636) vcan0 103#260DCD1688F16A3B
(1685659532.295868) vcan0 103#C38B7D532A3C076A
(1685659532.301298) vcan0 103#5942D744855D9F71
(1685659532.306415) vcan0 103#53F2531B564BD011
(1685659532.311579) vcan0 103#C163DC1566D5BC70
(1685659532.316692) vcan0 103#4138DC5085C2FE17
(1685659532.321976) vcan0 103#7D5B1345F72DFF54
(1685659532.327208) vcan0 103#2C51536BD0EA0C39
(1685659532.332338) vcan0 103#9BF1CE2C4DEB7052
(1685659532.337496) vcan0 103#13F4FC4FF93FE75D
(1685659532.342863) vcan0 103#18D38B1EAD51FD00
(1685659532.347962) vcan0 103#7A1A43032EF64678
(1685659532.353253) vcan0 103#BEBF6F6B8FD06E68
(1685659532.359300) vcan0 103#CE4CC0300B09577B
(1685659532.364473) vcan0 103#578A61682CCFBC0C
(1685659532.370319) vcan0 103#C85E5D187D972E7F
(1685659532.375430) vcan0 103#B5C027488BEADA6B
(1685659532.380770) vcan0 103#A7D335690E03FF0C
(1685659532.385884) vcan0 103#10487A5DFAC58904
(1685659532.391231) vcan0 103#644ECF1ED2AB5673
(1685659532.396367) vcan0 103#609B4675A586AB6F
(1685659532.402288) vcan0 103#576E550BDDF6593A
(1685659532.407528) vcan0 103#9CB4AA4484BFA876
(1685659532.413336) vcan0 103#ADE1667337A67971
(1685659532.418856) vcan0 103#D1AA1949C1D56343
(1685659532.423951) vcan0 103#30E6604FE97DA567
(1685659532.429120) vcan0 103#6E276144AA00A452
(1685659532.434327) vcan0 103#1874EC5F2CE7D02F
(1685659532.440339) vcan0 103#3AD1123BE6C0AC10
(1685659532.445471) vcan0 103#37F0272B915B7423
(1685659532.451225) vcan0 103#1290691D004F8543
(1685659532.456389) vcan0 103#0FF3A222C7509165
(1685659532.461486) vcan0 103#8B39602FB6C6D80B
(1685659532.467548) vcan0 103#D55390729C81DA0C
(1685659532.473644) vcan0 103#B18C621039A25F11
(1685659532.478754) vcan0 103#6E2D31001128A905
(1685659532.484948) vcan0 103#DF280B01C59B860B
(1685659532.490502) vcan0 103#EF1E03407BDDB545
(1685659532.495977) vcan0 103#495B2F029C006A33
(1685659532.502315) vcan0 103#B3832F371A06494B
(1685659532.508029) vcan0 103#5DD6CD76E3699006
(1685659532.514371) vcan0 103#0484EE32CBFD2E3B
(1685659532.520546) vcan0 103#8E6A34591CF8DA12
(1685659532.526276) vcan0 103#F8E4FF6AC83B4714
(1685659532.531359) vcan0 103#02B987232FD52716
(1685659532.537622) vcan0 103#5997BB371449F140
(1685659532.543582) vcan0 103#2F24AD59688A5E5A
(1685659532.549319) vcan0 103#DC998226BB5D0D09
(1685659532.555123) vcan0 103#1F513766B1ED1219
(1685659532.560347) vcan0 103#57DFE715D0DD9976
(1685659532.566095) vcan0 103#EB8F722AC50C1916
(1685659532.571730) vcan0 103#E105437CCAB87D2B
(1685659532.577130) vcan0 103#8AA89F21D024463C
(1685659532.582649) vcan0 103#45963371D403CF23
(1685659532.587806) vcan0 103#6D25B06FF8196328
(1685659532.592923) vcan0 103#EE09186FCAFB7D66
(1685659532.598371) vcan0 103#DC83F32EF28D0622
(1685659532.603559) vcan0 103#96F9AC216AEE2708
(1685659532.609188) vcan0 103#0E86E1348EDEAC0C
(1685659532.614404) vcan0 103#322A6F1C103F6958
(1685659532.619703) vcan0 103#BDB3D4228BC12A54
(1685659532.624811) vcan0 103#25885A19EDD7817C
(1685659532.629967) vcan0 103#F44B892E0122DD3F
(1685659532.635329) vcan0 103#A8358F05139DC014
(1685659532.640430) vcan0 103#B20FF058FF14771B
(1685659532.645841) vcan0 103#E37A5A0B9D9F6203
(1685659532.651341) vcan0 103#C4219031C4809D07
(1685659532.656627) vcan0 103#6758E02E4ECA2F53
(1685659532.661782) vcan0 103#95A5E343ADEE1320
(1685659532.666963) vcan0 103#22CEFE7602CB9333
(1685659532.672188) vcan0 103#A508774811D81666
(1685659532.677973) vcan0 103#CCC6111A818C6A77
(1685659532.683342) vcan0 103#03661D0862C0BE3B
(1685659532.689125) vcan0 103#EB7A927F12ECFE3C
(1685659532.694900) vcan0 103#F09E6B481DA5011C
(1685659532.700291) vcan0 103#222B6815AE52406B
(1685659532.705602) vcan0 103#A9662C7047B3C22E
(1685659532.711010) vcan0 103#9B2AC2679DB2B51E
(1685659532.717005) vcan0 103#48D59F6E4360516D
(1685659532.722322) vcan0 103#B04F7633FBE48F47
(1685659532.728083) vcan0 103#4275C80893CAD03E
(1685659532.733858) vcan0 103#9884F24A0697583A
(1685659532.739344) vcan0 103#574B6E4600DDD279
(1685659532.744924) vcan0 103#5461880DECF0510A
(1685659532.750167) vcan0 103#ADCBE619772F8704
(1685659532.755454) vcan0 103#EEBBE53D52D45D62
(1685659532.760794) vcan0 103#88079E6ABB82F757
(1685659532.766445) vcan0 103#D460C8598B6DBB72
(1685659532.771544) vcan0 103#1D43B613BFDB5A59
(1685659532.776616) vcan0 103#9D59BA2F0EE2215C
(1685659532.782964) vcan0 103#DD805C75C0842245
(1685659532.788472) vcan0 103#BC34624786E78865
(1685659532.794097) vcan0 103#0738E573575F242F
(1685659532.799604) vcan0 103#239A3E04500D8562
(1685659532.805951) vcan0 103#9ABF751CD3E9B437
(1685659532.811260) vcan0 103#4BF2142ADC343E25
(1685659532.817614) vcan0 103#66B48576E3760775
(1685659532.822910) vcan0 103#E2CB965FBDFFF33C
(1685659532.829263) vcan0 103#E353DA6E362D1F6D
(1685659532.834388) vcan0 103#AAF04547901FC108
(1685659532.839649) vcan0 103#AD5CA67198AC2B05
(1685659532.845605) vcan0 103#E3F31E6B3564445C
(1685659532.851422) vcan0 103#532F235DB754E744
(1685659532.857277) vcan0 103#C1D1FF4E7172D970
(1685659532.862758) vcan0 103#7630421E5E2BBA7E
(1685659532.868184) vcan0 103#7F54FB4C53B19E13
(1685659532.873261) vcan0 103#1EB0DC433B895D14
(1685659532.879601) vcan0 103#D998277926E8C137
(1685659532.884701) vcan0 103#92E88143FC32667D
(1685659532.891023) vcan0 103#76F5461A2CA8F75F
(1685659532.896219) vcan0 103#CF1C1B35C1E75B44
(1685659532.901359) vcan0 103#08DD350535D1A02B
(1685659532.907598) vcan0 103#A45E6339EAA8CC64
(1685659532.912675) vcan0 103#F3D0946888B23D28
(1685659532.919022) vcan0 103#20D6EB519DC1DA2F
(1685659532.924269) vcan0 103#18D2FE30CE329243
(1685659532.929487) vcan0 103#356E0635FBC51D1C
(1685659532.934595) vcan0 103#0397D61F899D2912
(1685659532.939703) vcan0 103#B21A0561C468D66E
(1685659532.946042) vcan0 103#FA0F0303294B477F
(1685659532.951143) vcan0 103#2394906D7964FE4F
(1685659532.957488) vcan0 103#7CFCE51241446D31
(1685659532.962576) vcan0 103#B4ED5B6456950D0C
(1685659532.968393) vcan0 103#672C2F6946D6DD27
(1685659532.973551) vcan0 103#52C87309DD217603
(1685659532.979888) vcan0 103#727ED50722E58E3E
(1685659532.985664) vcan0 103#9E09D2477A5B0B0D
(1685659532.992007) vcan0 103#57B62F6A43683501
(1685659532.997961) vcan0 103#6404D8714A87C452
(1685659533.004302) vcan0 103#CB1A732984DAC343
(1685659533.010378) vcan0 103#E7489F02E3EC715A
(1685659533.016402) vcan0 103#520D56071DB7A537
(1685659533.022257) vcan0 103#DFB28F7656A42C27
(1685659533.027418) vcan0 103#A654CF4991CD9457
(1685659533.033162) vcan0 103#1A0D0316A064D24C
(1685659533.038426) vcan0 103#BA18DC563DA19303
(1685659533.043830) vcan0 103#19C9D01C3715C269
(1685659533.049240) vcan0 103#7FE50035CDB62C01
(1685659533.054385) vcan0 103#8DAACF75E611301E
(1685659533.059740) vcan0 103#138D0A29DF72437F
(1685659533.065290) vcan0 103#C433A621850BE030
(1685659533.070832) vcan0 103#0158D23D623D7869
(1685659533.076521) vcan0 103#FF66EB3D590E0228
(1685659533.081912) vcan0 103#A5A5AD6A636BC32F
(1685659533.087132) vcan0 103#A395C67A70C02014
(1685659533.092268) vcan0 103#E74587738BDE657D
(1685659533.097376) vcan0 103#54AD926E3A53DD7A
(1685659533.103738) vcan0 103#A8950B3533602265
(1685659533.108839) vcan0 103#90F709224EEADA7E
(1685659533.115022) vcan0 103#C42DB73CAA040D38
(1685659533.120258) vcan0 103#EE4EAD4B7F469313
(1685659533.126275) vcan0 103#E8A5A03B07187E68
(1685659533.132054) vcan0 103#B65B557D678BA170
(1685659533.137397) vcan0 103#D4CEAA6943062573
(1685659533.143782) vcan0 103#4D9DD10EE75BB512
(1685659533.149052) vcan0 103#2279687211D17730
(1685659533.155430) vcan0 103#6C67954324D13A30
(1685659533.160709) vcan0 103#740EF0196BCE8001
(1685659533.166206) vcan0 103#7DDF3C5819B49D04
(1685659533.171618) vcan0 103#CE39443120750353
(1685659533.176729) vcan0 103#8A74BE18B57FCB24
(1685659533.182404) vcan0 103#AB536950DE215107
(1685659533.187502) vcan0 103#EFD2A81F53E97405
(1685659533.192880) vcan0 103#1182736C7FCAB241
(1685659533.197982) vcan0 103#A1D34F04D5AF2A29
(1685659533.203234) vcan0 103#2ACFBF798F22FD4F
(1685659533.208347) vcan0 103#54F6BD3C12756035
(1685659533.214163) vcan0 103#963A7B380A52133A
(1685659533.219884) vcan0 103#790002266A092622
(1685659533.225567) vcan0 103#4D58382DC69DD334
(1685659533.231209) vcan0 103#5165DB3470D1A01F
(1685659533.236573) vcan0 103#D86E4B65BDCC7078
(1685659533.241944) vcan0 103#94A2DB4F4C7D3B7F
(1685659533.247359) vcan0 103#289BF17911821828
(1685659533.253061) vcan0 103#6531D903F6D4352B
(1685659533.258160) vcan0 103#31F71B7BEFA5971C
(1685659533.263256) vcan0 103#AC540150DD4A854B
(1685659533.268373) vcan0 103#CDC7E8239B27AA6F
(1685659533.273477) vcan0 103#3034FA50DE495C10
(1685659533.278758) vcan0 103#1BF25C31D2074A55
(1685659533.285110) vcan0 103#B4F9863945C11C2B
(1685659533.291469) vcan0 103#612A472508F04476
(1685659533.297825) vcan0 103#57367D60F864C25D
(1685659533.303609) vcan0 103#13425830D0367F06
(1685659533.310005) vcan0 103#626EE87F609A905D
(1685659533.316362) vcan0 103#96D4523BB4D3C334
(1685659533.321633) vcan0 103#D06B317D6E439E20
(1685659533.328002) vcan0 103#71A0342D640E0D4D
(1685659533.334360) vcan0 103#BAC0D91F9A3B2627
(1685659533.340009) vcan0 103#7590257520F2B223
(1685659533.345737) vcan0 103#90105C52A7874170
(1685659533.350990) vcan0 103#0F984A403C655D22
(1685659533.357314) vcan0 103#84D2C63BDD5F3364
(1685659533.362726) vcan0 103#D88C0712B406C10C
(1685659533.368359) vcan0 103#BBA98F74F37E6443
(1685659533.374720) vcan0 103#860E0B626FA3162E
(1685659533.379853) vcan0 103#3840816EE8385207
(1685659533.386217) vcan0 103#78935B248F76FE4E
(1685659533.391529) vcan0 103#E09D14658BD5B354
(1685659533.396637) vcan0 103#5FAD7D55420CFD64
(1685659533.402280) vcan0 103#EB6F4432F581D010
(1685659533.407531) vcan0 103#F6DFC019BCDB752F
(1685659533.412915) vcan0 103#64C56E316880F546
(1685659533.418035) vcan0 103#20EA827C1E864851
(1685659533.423247) vcan0 103#02BC1B6E967AA871
(1685659533.428328) vcan0 103#3E78FB7492CC7740
(1685659533.434173) vcan0 103#3D02EA614E104635
(1685659533.440207) vcan0 103#CF31D562C1D4B01D
(1685659533.445947) vcan0 103#2B707919A7BEDC74
(1685659533.451921) vcan0 103#75DB712AE619090E
(1685659533.457617) vcan0 103#9A3D4138FCE97C0C
(1685659533.463233) vcan0 103#56BD1F3CD27DC226
(1685659533.468558) vcan0 103#E422CF13CE507B60
(1685659533.474209) vcan0 103#61F4C075C4C0E378
(1685659533.479349) vcan0 103#59262F35C0A13E4B
(1685659533.484683) vcan0 103#06CDE05D44967367
(1685659533.489789) vcan0 103#B5230F5CFDACA177
(1685659533.495029) vcan0 103#0072E91619E97D0D
(1685659533.500267) vcan0 103#652D973E215C6C13
(1685659533.505613) vcan0 103#386FC65E67E9B22C
(1685659533.511279) vcan0 103#B7D6140576E7C153
(1685659533.516414) vcan0 103#F9B52A6DF4D8FE66
(1685659533.522018) vcan0 103#C4F70709C8E7FF4F
(1685659533.527655) vcan0 103#B5ADAF04EF678122
(1685659533.532811) vcan0 103#6FA6DC442A89212F
(1685659533.538005) vcan0 103#D6818A3009E41D7D
(1685659533.543352) vcan0 103#26739E3B2C3FAA6C
(1685659533.549226) vcan0 103#DB61E0230A966D4F
(1685659533.554355) vcan0 103#FA8F254D3C56A119
(1685659533.559951) vcan0 103#CE56514853B65402
(1685659533.566323) vcan0 103#FCF7DF64D5233226
(1685659533.571574) vcan0 103#974CC869B21BEF40
(1685659533.577924) vcan0 103#D2D0D31D98BEB100
(1685659533.583316) vcan0 103#CB046D4E37FE6A5C
(1685659533.589688) vcan0 103#B91A1E140374332D
(1685659533.595024) vcan0 103#9EE71D0970F13219
(1685659533.600275) vcan0 103#7A5BF500979D4876
(1685659533.606287) vcan0 103#64CA31003E53FD09
(1685659533.611762) vcan0 103#608548461978E104
(1685659533.617195) vcan0 103#2EBB7E2CCF2B250B
(1685659533.622301) vcan0 103#43010334043D095D
(1685659533.628279) vcan0 103#D90F43086A74A16F
(1685659533.633390) vcan0 103#307CB349B471232C
(1685659533.638733) vcan0 103#740A0F3F2A0CD916
(1685659533.645115) vcan0 103#F1C7C44543616007
(1685659533.650224) vcan0 103#7DC22D19EDBFA42A
(1685659533.656580) vcan0 103#1885922D140FF602
(1685659533.661791) vcan0 103#9FDB936BEA55664B
(1685659533.667768) vcan0 103#ACCDA7036BE0003A
(1685659533.672936) vcan0 103#2154D12765E8C517
(1685659533.678773) vcan0 103#6E543467BF3BEF30
(1685659533.685121) vcan0 103#D5D9F830E8AF2968
(1685659533.690533) vcan0 103#56D9372739A42A31
(1685659533.696402) vcan0 103#27032772B65E806D
(1685659533.701511) vcan0 103#521C0C3655BEA51E
(1685659533.706629) vcan0 103#868AA578961D0F6A
(1685659533.711770) vcan0 103#59FBAE7B5F9AE800
(1685659533.716882) vcan0 103#0092B05989776245
(1685659533.723233) vcan0 103#130C0C2D749CBF18
(1685659533.729263) vcan0 103#B3833B5C04D4D072
(1685659533.735606) vcan0 103#B7FD1F2030466975
(1685659533.740771) vcan0 103#F293751DCF82B24D
(1685659533.747112) vcan0 103#44555F78916F0909
(1685659533.753033) vcan0 103#B9D81819F122077C
(1685659533.758165) vcan0 103#FC4F0A43DA2CEA40
(1685659533.764493) vcan0 103#560BCD136BA43E2A
(1685659533.770838) vcan0 103#9968D9712CE5C544
(1685659533.776437) vcan0 103#53546812F0411119
(1685659533.782799) vcan0 103#6589F0757A578F04
(1685659533.788310) vcan0 103#A6A09106B8A5FC2B
(1685659533.794677) vcan0 103#CF1535232C2B377F
(1685659533.801026) vcan0 103#4EC30B162811E41E
(1685659533.807413) vcan0 103#8BC51F004E55BC6F
(1685659533.813767) vcan0 103#B18846649FD12B2D
(1685659533.820122) vcan0 103#C2F17B08640C8240
(1685659533.825623) vcan0 103#A3A5FC1F7AEF9B28
(1685659533.831668) vcan0 103#9452EB359539723D
(1685659533.838027) vcan0 103#49724E76D9A74A2E
(1685659533.843956) vcan0 103#27A97B46034B670F
(1685659533.850303) vcan0 103#CACA512A23F98509
(1685659533.855612) vcan0 103#DD77515020D61E3E
(1685659533.861963) vcan0 103#8E9DC43377E02A42
(1685659533.867092) vcan0 103#4CBBE402E2F12C46
(1685659533.873456) vcan0 103#67223C5BB244D578
(1685659533.879173) vcan0 103#5C49BC4A0DC3CD61
(1685659533.884744) vcan0 103#6AEAD1242C5FF16D
(1685659533.889980) vcan0 103#3AEE0461B8ADDD3A
(1685659533.895105) vcan0 103#5470D50CC5B32461
(1685659533.901433) vcan0 103#06039A2A06F91B71
(1685659533.907662) vcan0 103#6485500EC8F41533
(1685659533.912941) vcan0 103#6A059E31082B4D2E
(1685659533.919005) vcan0 103#42E4B15BFF578967
(1685659533.924309) vcan0 103#9D64BF6B8C560052
(1685659533.930652) vcan0 103#D8FFD315C40D3B32
(1685659533.935846) vcan0 103#8FA16761A2CA2540
(1685659533.941376) vcan0 103#E806C13B6C19B931
(1685659533.946542) vcan0 103#C2A0447E76A4856F
(1685659533.951649) vcan0 103#E3F9E3730F5C2901
(1685659533.957989) vcan0 103#5896B2354A1C204F
(1685659533.963189) vcan0 103#C1A0FE79B5DF6E00
(1685659533.969477) vcan0 103#58DFED302B8BD01E
(1685659533.975072) vcan0 103#E13E606E92CDF211
(1685659533.981416) vcan0 103#E338AE5935AF357B
(1685659533.987078) vcan0 103#57811773E93B4804
(1685659533.992321) vcan0 103#3BA8516CBC066801
(1685659533.998313) vcan0 103#B1305E37A6ADEF1D
(1685659534.004660) vcan0 103#C431B52FF4141013
(1685659534.010795) vcan0 103#A50579056196741B
(1685659534.015922) vcan0 103#806B10657D054D1B
(1685659534.021372) vcan0 103#26A4AF4D0F0D7846
(1685659534.026726) vcan0 103#1FD0725B0EAB7009
(1685659534.033075) vcan0 103#7B263178E170B759
(1685659534.038305) vcan0 103#844FF6785F20156C
(1685659534.044018) vcan0 103#F0CCE05ADDE5A82E
(1685659534.049184) vcan0 103#A93C353BB16DDF54
(1685659534.055531) vcan0 103#92C5172F011C236C
(1685659534.061160) vcan0 103#DCF8AF737304781D
(1685659534.067510) vcan0 103#93E9157EBF315E4D
(1685659534.073075) vcan0 103#A8B3AD18EB6A2D71
(1685659534.079498) vcan0 103#A86DA651E45BFF04
(1685659534.085409) vcan0 103#A77195725A9E0409
(1685659534.091295) vcan0 103#8A09EF226BA34A22
(1685659534.097629) vcan0 103#4EB3141C2F0F6828
(1685659534.103690) vcan0 103#CC39BF3DCE1E2501
(1685659534.108888) vcan0 103#AC14B543F2DD6E0B
(1685659534.115243) vcan0 103#DD2B9D47CBE4271F
(1685659534.121149) vcan0 103#0089DF145852CE3F
(1685659534.127430) vcan0 103#AC55DF7885D8D50D
(1685659534.133755) vcan0 103#B772E32B9D22C053
(1685659534.139418) vcan0 103#62BE7E3C61AF1867
(1685659534.144598) vcan0 103#4E909F28F483966B
(1685659534.150945) vcan0 103#62CB3B532B894F1C
(1685659534.156037) vcan0 103#67880E09F6B45151
(1685659534.162385) vcan0 103#EABAAD690F3CBC21
(1685659534.168706) vcan0 103#E11F7F429328543B
(1685659534.174624) vcan0 103#F397BB2688911435
(1685659534.180589) vcan0 103#EDC658447DA1AA49
(1685659534.186202) vcan0 103#F3345F573B7A6D60
(1685659534.192189) vcan0 103#ACB01272BF6E1E15
(1685659534.197252) vcan0 103#0999926158C5C735
(1685659534.203325) vcan0 103#B24C8D20E6C42F29
(1685659534.209673) vcan0 103#23AAEF54B2D56C35
(1685659534.215580) vcan0 103#3E17FE68D0FFCE4D
(1685659534.221933) vcan0 103#37AE4243F689E114
(1685659534.227030) vcan0 103#6D228F21996CC17F
(1685659534.232250) vcan0 103#5739FA7BBBB22E4A
(1685659534.237556) vcan0 103#8DF0576BB904364F
(1685659534.243424) vcan0 103#E63B7E66F4786674
(1685659534.248730) vcan0 103#AFB98720D1F62B50
(1685659534.254896) vcan0 103#04B5221690D90663
(1685659534.260587) vcan0 103#641F800BF74CDE3C
(1685659534.265872) vcan0 103#186B1B1851E6D84F
(1685659534.271027) vcan0 103#75EE88060BA07A6F
(1685659534.276586) vcan0 103#8C604630219F9B78
(1685659534.281818) vcan0 103#CB0E990495F9D811
(1685659534.286914) vcan0 103#7A64632E7D5B2625
(1685659534.292081) vcan0 103#7BBE083B9D0E5303
(1685659534.297317) vcan0 103#2F31935AB9D50624
(1685659534.302438) vcan0 103#6D0E225167DFD51D
(1685659534.308225) vcan0 103#AF5FE838DA30B172
(1685659534.313488) vcan0 103#004C971D0699E234
(1685659534.319028) vcan0 103#96E3DF3C8E3CEF08
(1685659534.324304) vcan0 103#C09D18047C1F5E23
(1685659534.329580) vcan0 103#82B5557D6F57A024
(1685659534.335018) vcan0 103#4D168A73866A7813
(1685659534.340943) vcan0 103#0031A707B1350A7F
(1685659534.346218) vcan0 103#7EB75650189CC21F
(1685659534.352046) vcan0 103#021CE34EF3A5DF56
(1685659534.357185) vcan0 103#243C3D0F8E7C297F
(1685659534.362994) vcan0 103#14457B4FEF4AD613
(1685659534.368936) vcan0 103#237602118EA9DE7D
(1685659534.374689) vcan0 103#6CA6FC389E340B4C
(1685659534.380630) vcan0 103#2CB831019BD78F13
(1685659534.385952) vcan0 103#580A127099C65352
(1685659534.391062) vcan0 103#02B76531076AFA28
(1685659534.396361) vcan0 103#74F704450303FD4E
(1685659534.402354) vcan0 103#0E03DD5D0ADBE401
(1685659534.407541) vcan0 103#913FEC57CEA0F561
(1685659534.412790) vcan0 103#86FA422513F54155
(1685659534.418410) vcan0 103#3DF89506D410CD18
(1685659534.423768) vcan0 103#9A5FBA683D293D0E
(1685659534.428894) vcan0 103#8546D71718171139
(1685659534.434164) vcan0 103#56C5FF2D8862BA66
(1685659534.440046) vcan0 103#0BBDF00F7A013D3D
(1685659534.445183) vcan0 103#16DFE3651F026C5F
(1685659534.451080) vcan0 103#694C13513A55E676
(1685659534.456207) vcan0 103#AEAB4A5DD5F20F0A
(1685659534.462177) vcan0 103#D889F142DA637C5E
(1685659534.467274) vcan0 103#70CA9F1D30940333
(1685659534.472717) vcan0 103#732AD0307381054F
(1685659534.478365) vcan0 103#38FEFD5BE721D575
(1685659534.483659) vcan0 103#7684021E4601DB39
(1685659534.489017) vcan0 103#F1FCB97707C4EE75
(1685659534.494585) vcan0 103#14A2D01B78F7FC1C
(1685659534.500310) vcan0 103#1AB9304B519A6622
(1685659534.505417) vcan0 103#4C08CA35B418EB33
(1685659534.510755) vcan0 103#8FC3A330D14EA14D
(1685659534.516123) vcan0 103#CC2FFC6CE588A35E
(1685659534.521242) vcan0 103#59B15B34D7ECEC7C
(1685659534.526677) vcan0 103#5F8AE01B70903F1A
(1685659534.532354) vcan0 103#F7EE585CC8D6F36C
(1685659534.538707) vcan0 103#AAE52511A59AA339
(1685659534.543974) vcan0 103#9DC90377826F1754
(1685659534.550317) vcan0 103#7FFE1F180D94A314
(1685659534.556437) vcan0 103#B3031B07F228F048
(1685659534.562687) vcan0 103#8015A963EB011963
(1685659534.567962) vcan0 103#DA4AC53EF699AB01
(1685659534.574326) vcan0 103#3103F41CCB477F36
(1685659534.580031) vcan0 103#FD5D9A7745A5C438
(1685659534.585821) vcan0 103#433F7C531817CB42
(1685659534.591781) vcan0 103#963F2B5B8F474609
(1685659534.596997) vcan0 103#CC2FB6762503CF0B
(1685659534.602151) vcan0 103#6196E756995FB263
(1685659534.608511) vcan0 103#0A8C726ABA47430B
(1685659534.613631) vcan0 103#704C9F6069165306
(1685659534.619050) vcan0 103#2AD88225673BF83C
(1685659534.624945) vcan0 103#31ED4673D4BDA836
(1685659534.630193) vcan0 103#0CD69B76CEB64A6A
(1685659534.635789) vcan0 103#572DC00A8BD4BB0E
(1685659534.641005) vcan0 103#DC4AEE7E0A31DB11
(1685659534.647323) vcan0 103#7EFDAB575C609762
(1685659534.652436) vcan0 103#F532F47458487116
(1685659534.657667) vcan0 103#53FA42642636E811
(1685659534.662791) vcan0 103#2390F04C5058DD5B
(1685659534.668010) vcan0 103#6BDBAC4A67CF6C20
(1685659534.673083) vcan0 103#686FA81E011BD825
(1685659534.679428) vcan0 103#F616B329359F5E15
(1685659534.684603) vcan0 103#271EA73157AD9A00
(1685659534.690945) vcan0 103#CEFE107931AA191C
(1685659534.697283) vcan0 103#12F5DD0B3E4BB059
(1685659534.703375) vcan0 103#9BC06C223CCD6031
(1685659534.708477) vcan0 103#A686A816CCADB315
(1685659534.714624) vcan0 103#118B0968B25C440D
(1685659534.719753) vcan0 103#9B64FE7F68B8C972
(1685659534.724842) vcan0 103#3E31001C77AFEC7E
(1685659534.730465) vcan0 103#72E9A404BC2EAC73
(1685659534.735729) vcan0 103#D30F8461671C9979
(1685659534.740912) vcan0 103#14771D0A260AC745
(1685659534.746021) vcan0 103#8D52810B37070E57
(1685659534.751246) vcan0 103#7762A421F82D2E56
(1685659534.756356) vcan0 103#9ED67A77DFD14C40
(1685659534.761501) vcan0 103#F948067C95ED2D21
(1685659534.766606) vcan0 103#1471AB552067AD2D
(1685659534.772597) vcan0 103#EC9AC821E26FBC4E
(1685659534.777807) vcan0 103#5211C749FE8FA62D
(1685659534.783598) vcan0 103#21BB6C28EDD1336C
(1685659534.788859) vcan0 103#3B5D075FC741153F
(1685659534.794717) vcan0 103#B97FE7014CE81047
(1685659534.800117) vcan0 103#799E594C54E4E501
(1685659534.806218) vcan0 103#B4A0DA39B7CF5968
(1685659534.811366) vcan0 103#CB93D200268A7F3E
(1685659534.816889) vcan0 103#73FE055C9FA35662
(1685659534.822429) vcan0 103#8DA6183887752366
(1685659534.828510) vcan0 103#C5AD1D281AF99943
(1685659534.834330) vcan0 103#BF7C313D3C10C249
(1685659534.839892) vcan0 103#1227C8195D53AC34
(1685659534.845663) vcan0 103#1CE20E0A0B70CE15
(1685659534.850789) vcan0 103#F240DA553053BA5F
(1685659534.855907) vcan0 103#2CD77B43DFDBA277
(1685659534.862265) vcan0 103#13C3762E7EE8420D
(1685659534.867567) vcan0 103#DD6B4925347EE356
(1685659534.873915) vcan0 103#6BBA767918C95004
(1685659534.879372) vcan0 103#FBBFF815243A5E7B
(1685659534.884886) vcan0 103#64B1614B745E5262
(1685659534.890622) vcan0 103#791E447D18523C05
(1685659534.896126) vcan0 103#2C2EAC4A44B2167E
(1685659534.901634) vcan0 103#3EDCBB439F2CB226
(1685659534.907022) vcan0 103#E3556D60CB82D47B
(1685659534.912971) vcan0 103#27A2D50CA9038B08
(1685659534.919125) vcan0 103#E57B6E3FE61E074A
(1685659534.924816) vcan0 103#E5134D52F7A23659
(1685659534.930046) vcan0 103#4372B37E01F65B5C
(1685659534.935182) vcan0 103#0313056F36B38D54
(1685659534.940426) vcan0 103#3249163C2FEA8032
(1685659534.946208) vcan0 103#158F304C450C8D6A
(1685659534.951250) vcan0 103#ADD2C33FF2FA7971
(1685659534.957358) vcan0 103#798A7041188D3A39
(1685659534.962629) vcan0 103#0BC4CA75744A6957
(1685659534.969007) vcan0 103#3CC798346F752C41
(1685659534.975360) vcan0 103#E8A8BB39B5E5DC31
(1685659534.980699) vcan0 103#88C7684614D76704
(1685659534.986211) vcan0 103#FA97F32FC6A3240A
(1685659534.991484) vcan0 103#B4031A2BDDED6010
(1685659534.996601) vcan0 103#9226F905DBA5EF37
(1685659535.001787) vcan0 103#86F1EB1877A26745
(1685659535.007627) vcan0 103#C1C4F6016C05396B
(1685659535.012853) vcan0 103#6F459E1E0437AA00
(1685659535.019198) vcan0 103#6DFB94477258A30D
(1685659535.024918) vcan0 103#3AEA37559F44AB03
(1685659535.031245) vcan0 103#A14224404F796821
(1685659535.037536) vcan0 103#E450386E4E15E87F
(1685659535.042659) vcan0 103#4274E2125DDBA82F
(1685659535.048091) vcan0 103#66A222394D38AD08
(1685659535.054459) vcan0 103#D1251207A269BB6D
(1685659535.060782) vcan0 103#BCADD949BACECD40
(1685659535.067135) vcan0 103#584F981F44754210
(1685659535.072488) vcan0 103#CEA5354552E78B4F
(1685659535.078840) vcan0 103#0B19671A82A94F70
(1685659535.084008) vcan0 103#2FD5EC5F9D3F6020
(1685659535.089462) vcan0 103#5D4F3F28B6C6D878
(1685659535.094701) vcan0 103#14E2C7651E14362A
(1685659535.101087) vcan0 103#22CC116483276604
(1685659535.107514) vcan0 103#234BE02A8FC7A62B
(1685659535.112924) vcan0 103#F57F09125D351800
(1685659535.119290) vcan0 103#2F0C522F96C22D52
(1685659535.124627) vcan0 103#ADAE8021135D8A1D
(1685659535.130555) vcan0 103#E4D71552EF226334
(1685659535.135884) vcan0 103#7138334D4A7A380B
(1685659535.142266) vcan0 103#3C5B103D425E4554
(1685659535.148331) vcan0 103#EDE3F378F808EA06
(1685659535.154722) vcan0 103#FC2C131545338C18
(1685659535.160620) vcan0 103#3D7E2C17CBD2485A
(1685659535.166567) vcan0 103#971A186848979331
(1685659535.171713) vcan0 103#4D7C984AC6EF0448
(1685659535.176910) vcan0 103#E5D6F351ABCBD772
(1685659535.182549) vcan0 103#7CB6DD40F9B8BB37
(1685659535.187675) vcan0 103#C9DF0D1D9E82EF24
(1685659535.192855) vcan0 103#7DE0213CEC2AEE47
(1685659535.197936) vcan0 103#2E4A965072602B4E
(1685659535.203843) vcan0 103#4A6006485D56E87F
(1685659535.209238) vcan0 103#09235920F70E8769
(1685659535.215581) vcan0 103#70B3721DEDFA6E72
(1685659535.221239) vcan0 103#E631EA1DE1EBA56A
(1685659535.227589) vcan0 103#3875A77D228DFA5A
(1685659535.233246) vcan0 103#244AEB3E25599B76
(1685659535.239592) vcan0 103#1A96E4612077FE53
(1685659535.245233) vcan0 103#6A8C270F57141179
(1685659535.251591) vcan0 103#EB49472E01A73F77
(1685659535.256699) vcan0 103#9FABA42A39C6DF78
(1685659535.263051) vcan0 103#C796443F8482987C
(1685659535.268162) vcan0 103#E491B76B444D2200
(1685659535.274517) vcan0 103#7E3B5434AD71C508
(1685659535.279918) vcan0 103#E2CF1125FB1B7670
(1685659535.286274) vcan0 103#9A9CB350101AA875
(1685659535.291650) vcan0 103#6D7CA13EE4FCB918
(1685659535.298039) vcan0 103#6D709075769FFA5E
(1685659535.303146) vcan0 103#DB0B4102DE230313
(1685659535.308641) vcan0 103#649A6951C13D2B20
(1685659535.315037) vcan0 103#BF0FA97D9C0F114F
(1685659535.320566) vcan0 103#E3CA257BE359943C
(1685659535.326919) vcan0 103#C168AC45FD600A5D
(1685659535.332465) vcan0 103#04D192102BF5D354
(1685659535.338859) vcan0 103#55751B56EF1ADA3E
(1685659535.344308) vcan0 103#2C9C134CF420C000
(1685659535.350432) vcan0 103#28E1B937F332580B
(1685659535.355545) vcan0 103#79A3587D0C737123
(1685659535.361917) vcan0 103#37807A0BF7DEAC31
(1685659535.367498) vcan0 103#BAE4362C1A508C30
(1685659535.373668) vcan0 103#F2FA22225481EA7C
(1685659535.379464) vcan0 103#2A6A34265F77C460
(1685659535.385826) vcan0 103#387EA41598DAC41B
(1685659535.392206) vcan0 103#D616BF3F138AE517
(1685659535.397391) vcan0 103#76FEC72E3AB12811
(1685659535.402520) vcan0 103#D4C71038350E712C
(1685659535.408730) vcan0 103#D6C03960B7923633
(1685659535.415094) vcan0 103#196805699729E625
(1685659535.421452) vcan0 103#B4F340101D399879
(1685659535.427825) vcan0 103#C21EBA7A09695C66
(1685659535.433858) vcan0 103#0C547238EEBACD46
(1685659535.440209) vcan0 103#FE891C6735352C70
(1685659535.446558) vcan0 103#E1ED2552772D7564
(1685659535.452899) vcan0 103#41A89D13196EA05D
(1685659535.459248) vcan0 103#6E0C2216FB8CD43F
(1685659535.464607) vcan0 103#33BE2C0E60074538
(1685659535.470958) vcan0 103#4F0EBF3C5D286134
(1685659535.476106) vcan0 103#BF7E0919878C6352
(1685659535.482274) vcan0 103#F50226509595C858
(1685659535.488318) vcan0 103#9A16496A6B01EE7E
(1685659535.493420) vcan0 103#CF46F1696EDE5922
(1685659535.498999) vcan0 103#A10F5F2BA5072B4A
(1685659535.505221) vcan0 103#25719055BA776414
(1685659535.511573) vcan0 103#3C311170DA64D165
(1685659535.516957) vcan0 103#D7B0FC0DFE4FCB6A
(1685659535.523295) vcan0 103#E3CD2D4CE3046F46
(1685659535.529114) vcan0 103#EC0A9931E1574A33
(1685659535.535252) vcan0 103#183A9B36CEF8BE03
(1685659535.541291) vcan0 103#5885BF175AE2384A
(1685659535.546407) vcan0 103#E7665F61C691E12D
(1685659535.552516) vcan0 103#556F0D0A1A258C6F
(1685659535.557675) vcan0 103#26992666A57DCC46
(1685659535.563936) vcan0 103#774DED23E617307F
(1685659535.569207) vcan0 103#2C0A30196D501374
(1685659535.575539) vcan0 103#7BADF857C7207903
(1685659535.581268) vcan0 103#D85101734BF4E941
(1685659535.587185) vcan0 103#35FFD2257961601E
(1685659535.593566) vcan0 103#F0FB140C5B70637B
(1685659535.598958) vcan0 103#33D9C4322D2D267C
(1685659535.605345) vcan0 103#35D534610A8AC140
(1685659535.610604) vcan0 103#2B7DF16618A3622D
(1685659535.616512) vcan0 103#EE8E300718888A18
(1685659535.622900) vcan0 103#FAFAAC6006C9CB3D
(1685659535.628695) vcan0 103#E680491C52806C78
(1685659535.634217) vcan0 103#60AB0408CDE7A87D
(1685659535.639690) vcan0 103#19124E26B61A1212
(1685659535.646056) vcan0 103#E70C356D3FAB740C
(1685659535.651512) vcan0 103#5B98DE585E5A2211
(1685659535.657522) vcan0 103#25C3A40B87A20E72
(1685659535.663190) vcan0 103#CBAA3505A1709D63
(1685659535.669182) vcan0 103#4EC38775A4FC3678
(1685659535.674560) vcan0 103#EC64872584C25A1B
(1685659535.680619) vcan0 103#1D5E9716DC609C31
(1685659535.685800) vcan0 103#DF32BE1651375C49
(1685659535.690933) vcan0 103#098EC22D1408F377
(1685659535.696287) vcan0 103#5BC11D0A350BB414
(1685659535.701734) vcan0 103#2CAB552549504E11
(1685659535.707565) vcan0 103#4D933E2D26A60206
(1685659535.712884) vcan0 103#50191A4F33148849
(1685659535.719237) vcan0 103#79266F7EB0C41E57
(1685659535.724953) vcan0 103#00FC30479238BD24
(1685659535.731211) vcan0 103#66DF3069E7086634
(1685659535.736583) vcan0 103#D1E33131C1770F42
(1685659535.741952) vcan0 103#45638845F7A6D63C
(1685659535.747088) vcan0 103#491A1E34110EBE4A
(1685659535.752626) vcan0 103#9817742097DDA529
(1685659535.758127) vcan0 103#B50AF542847CFB45
(1685659535.764429) vcan0 103#1BA00045D2688C59
(1685659535.769997) vcan0 103#60DD9777FAD2BE5B
(1685659535.775131) vcan0 103#23A0E8226A6B5A25
(1685659535.780402) vcan0 103#0EDBB1537F61062D
(1685659535.785917) vcan0 103#9F760E3A3B860779
(1685659535.792265) vcan0 103#C8B1543EEC094D67
(1685659535.798099) vcan0 103#612C0A7F18CB6E0D
(1685659535.804145) vcan0 103#1F1ED530DA52797D
(1685659535.809670) vcan0 103#C98F8D641F1A0678
(1685659535.814985) vcan0 103#6C8B36222F6FBE4D
(1685659535.820512) vcan0 103#06236C2C3E6F6853
(1685659535.826854) vcan0 103#F1E6CD0F4B86F471
(1685659535.832167) vcan0 103#35163F103A01EC43
(1685659535.838662) vcan0 103#5C94B23CCD2DB330
(1685659535.844043) vcan0 103#D1DE916D119FA77F
(1685659535.850415) vcan0 103#51AAAE76ED7E9232
(1685659535.856800) vcan0 103#E4073459B187466E
(1685659535.862484) vcan0 103#E751510E07A81C7C
(1685659535.868868) vcan0 103#1BF3A013F62C0362
(1685659535.874287) vcan0 103#86092329BA69AF4D
(1685659535.880269) vcan0 103#31B30A5B4FBB7767
(1685659535.885425) vcan0 103#A673FC3492DF145A
(1685659535.891830) vcan0 103#6786E674C591D165
(1685659535.898183) vcan0 103#6D328E5730167459
(1685659535.904560) vcan0 103#E4ABD75DD9BDC479
(1685659535.910926) vcan0 103#60853227EACE430A
(1685659535.916400) vcan0 103#172D2D4D516C0037
(1685659535.922805) vcan0 103#3655387C4C436C5D
(1685659535.928428) vcan0 103#8B6DEC7A92E9EA38
(1685659535.933947) vcan0 103#19711F0E5C4C7E68
(1685659535.940189) vcan0 103#A48892386A1BCE04
(1685659535.945766) vcan0 103#49CB101B8890C611
(1685659535.951468) vcan0 103#1CA31473311D6229
(1685659535.957838) vcan0 103#8F38E30D3796B506
(1685659535.963223) vcan0 103#274A650B16420637
(1685659535.968397) vcan0 103#F2FF645458FD6F66
(1685659535.974495) vcan0 103#65FD7D1E98736109
(1685659535.980375) vcan0 103#EADC8440CC836413
(1685659535.985790) vcan0 103#5E05336F570F1318
(1685659535.991635) vcan0 103#FD99D86C42B10A4D
(1685659535.996809) vcan0 103#31CDD7115D1F0B14
(1685659536.002500) vcan0 103#2D804E5748FA045F
(1685659536.008184) vcan0 103#AE8B0B4B63D58653
(1685659536.014541) vcan0 103#953D713C39F9F745
(1685659536.020371) vcan0 103#F5BE710CAEAE904A
(1685659536.026740) vcan0 103#9545762E99470445
(1685659536.033093) vcan0 103#19CA5E4FDF108749
(1685659536.039457) vcan0 103#21D8CA56356D7342
(1685659536.045811) vcan0 103#102EE972B110AE64
(1685659536.051650) vcan0 103#6C03294937784E7E
(1685659536.059585) vcan0 103#C752B41B5E038E1D
(1685659536.069883) vcan0 103#8F75BE642C50323A
(1685659536.075609) vcan0 103#F776EF2679524325
(1685659536.081009) vcan0 103#F8D3964D557C2216
(1685659536.087436) vcan0 103#D161563DF56D6F3A
(1685659536.092564) vcan0 103#972D2D63022F2E4F
(1685659536.098919) vcan0 103#528D7A4EC4AD7B3A
(1685659536.104218) vcan0 103#4A29332E00198619
(1685659536.110566) vcan0 103#2783020EDF66A46A
(1685659536.116107) vcan0 103#39127E5F1D42741A
(1685659536.121431) vcan0 103#8E153535CF57F40D
(1685659536.127548) vcan0 103#B689785FA7DF9304
(1685659536.133905) vcan0 103#AE687B57D8614336
(1685659536.139664) vcan0 103#DC4C0747BE96644A
(1685659536.146003) vcan0 103#8972F11A48503010
(1685659536.151795) vcan0 103#F50EB34850C5A536
(1685659536.157263) vcan0 103#A753BE2D8484712D
(1685659536.163615) vcan0 103#7C15D8709ECAAD54
(1685659536.169542) vcan0 103#FDD6B45274E96E3E
(1685659536.175580) vcan0 103#F346D06ACE380B10
(1685659536.180967) vcan0 103#6A57DE788A74FD4D
(1685659536.186569) vcan0 103#D067395FBCE45847
(1685659536.192385) vcan0 103#4F2279081B916C0D
(1685659536.198742) vcan0 103#BDFDDE6076A57B16
(1685659536.205123) vcan0 103#FAF71078F60F5D40
(1685659536.211497) vcan0 103#93E7EF30880D462D
(1685659536.216875) vcan0 103#C567514E4A716810
(1685659536.223253) vcan0 103#2FEDD93173D0CC25
(1685659536.229080) vcan0 103#22D3AB460B3AE178
(1685659536.235438) vcan0 103#31673170AB459D61
(1685659536.241791) vcan0 103#548A11092676E438
(1685659536.247741) vcan0 103#FB0A4318FBDDCF36
(1685659536.252945) vcan0 103#AAFA556677201B09
(1685659536.259299) vcan0 103#99A87D0BA8D10A39
(1685659536.264431) vcan0 103#EB098A478CEF4D76
(1685659536.270311) vcan0 103#760A164955616840
(1685659536.276320) vcan0 103#16644B4447724F28
(1685659536.281850) vcan0 103#1246C1076586C44C
(1685659536.288213) vcan0 103#6203BC35CF43A068
(1685659536.294569) vcan0 103#DC2B40635CFBCC2D
(1685659536.300189) vcan0 103#C553FD286F133014
(1685659536.305688) vcan0 103#E508135B8BBB4E77
(1685659536.312066) vcan0 103#B984982414F6EC0C
(1685659536.318433) vcan0 103#FE8B1B1DDB57446B
(1685659536.324252) vcan0 103#2030CE0530F34C0D
(1685659536.330640) vcan0 103#869DE14C74BADF0E
(1685659536.337009) vcan0 103#5669314681A82465
(1685659536.343422) vcan0 103#6F98AF450164872C
(1685659536.349184) vcan0 103#F8C83F6E08412D51
(1685659536.355547) vcan0 103#A9359265E4D2C935
(1685659536.361900) vcan0 103#94307B471F40A82E
(1685659536.367702) vcan0 103#39343276AA94C60B
(1685659536.372866) vcan0 103#66B2F7564B7AF37D
(1685659536.378822) vcan0 103#101B8B58C8B5B30C
(1685659536.385063) vcan0 103#1ABE9366EC46CB3B
(1685659536.390835) vcan0 103#25B1803AE011910F
(1685659536.395984) vcan0 103#5B5AFB4F0ABA9315
(1685659536.402337) vcan0 103#6BCDDF0615DF9374
(1685659536.408191) vcan0 103#1EB080226959FB23
(1685659536.414536) vcan0 103#F036D85F3EE04E28
(1685659536.419656) vcan0 103#994C483177D4B92C
(1685659536.425999) vcan0 103#B29A2E37F0B57977
(1685659536.431162) vcan0 103#F87CDE112133DE7C
(1685659536.436395) vcan0 103#F1190124F1451E00
(1685659536.441749) vcan0 103#29740B4E9A4F9309
(1685659536.446864) vcan0 103#D518E835BDA48615
(1685659536.452571) vcan0 103#B98F3B380E4D1A2C
(1685659536.457711) vcan0 103#68394D212042330F
(1685659536.464069) vcan0 103#5AC70D2A7854D879
(1685659536.470417) vcan0 103#E8F7E61B7485A110
(1685659536.476219) vcan0 103#649BA3350DA96756
(1685659536.482569) vcan0 103#54973220BFF59E05
(1685659536.488917) vcan0 103#1763FB6BBF641227
(1685659536.495264) vcan0 103#D4D4327A36137C0E
(1685659536.501516) vcan0 103#29BE0D4BC50B0B5A
(1685659536.507880) vcan0 103#74F3CA36C20A567C
(1685659536.513797) vcan0 103#3CE0C406278EF96D
(1685659536.520148) vcan0 103#B2C0CF73345DA318
(1685659536.526491) vcan0 103#48C1D76AA3DAD017
(1685659536.532833) vcan0 103#25A3C1187235E338
(1685659536.538634) vcan0 103#3D2A6421FABBA94E
(1685659536.544976) vcan0 103#2FDA694EF7B99F59
(1685659536.550483) vcan0 103#0909C47A9713B76F
(1685659536.556647) vcan0 103#17FCD26863D0D124
(1685659536.562991) vcan0 103#0F688F69FFF3B904
(1685659536.569337) vcan0 103#D75573357303331F
(1685659536.575691) vcan0 103#0D9D215B2CEDA555
(1685659536.580930) vcan0 103#33F9D12424001D47
(1685659536.587279) vcan0 103#EB51B87C07CE041F
(1685659536.593619) vcan0 103#5A1399551410C647
(1685659536.599970) vcan0 103#CCD90F79CF06640C
(1685659536.606374) vcan0 103#D71A1C4408BAD47F
(1685659536.612743) vcan0 103#F6945D7A89DBEB37
