(1685659523.341809) vcan1 104#F6B6D13798F1D53C
(1685659523.351940) vcan1 104#1AE5FD3F5857DD12
(1685659523.362021) vcan1 104#53632A45BB06E66D
(1685659523.372094) vcan1 104#2099702C5137C260
(1685659523.382294) vcan1 104#5DCB195B2656DA20
(1685659523.394149) vcan1 104#6869883868B5F730
(1685659523.406202) vcan1 104#7C00AB6D4B851C58
(1685659523.418225) vcan1 104#3337F02CD14EC66C
(1685659523.429568) vcan1 104#60FCCF76B50B752C
(1685659523.439810) vcan1 104#BF74436B92BC7734
(1685659523.451383) vcan1 104#7B8635623B1FA348
(1685659523.461658) vcan1 104#FB98A35D9A1D840C
(1685659523.472152) vcan1 104#467D6D3A7BF7A01D
(1685659523.484203) vcan1 104#A826140BCEA17110
(1685659523.495605) vcan1 104#6529DE7798F7F874
(1685659523.507674) vcan1 104#89FBEC765BE0AF2F
(1685659523.517783) vcan1 104#30E9CE31A3E0EA36
(1685659523.528112) vcan1 104#B3378D42834CF976
(1685659523.538665) vcan1 104#5EE7D024D4D0FD6E
(1685659523.549036) vcan1 104#D483BB57BCB2EA7F
(1685659523.559816) vcan1 104#FA26D80F3CED4310
(1685659523.571520) vcan1 104#2468E2307727837D
(1685659523.583428) vcan1 104#88726068579FD25D
(1685659523.595513) vcan1 104#4876496AE86E305F
(1685659523.606638) vcan1 104#0CAB470A07EB8C55
(1685659523.616978) vcan1 104#7A2BA81388317D6C
(1685659523.627957) vcan1 104#430A301E75C44B71
(1685659523.639661) vcan1 104#224F017989879D58
(1685659523.649949) vcan1 104#F1BBEC0ECA751504
(1685659523.660422) vcan1 104#57290F6956E5CA06
(1685659523.670538) vcan1 104#626D0E79E024FC5F
(1685659523.681743) vcan1 104#B1C57A369256DD2A
(1685659523.693864) vcan1 104#8305E71665FD0779
(1685659523.706037) vcan1 104#15A3D621E2ECB73B
(1685659523.718222) vcan1 104#39CE0568E9269279
(1685659523.728599) vcan1 104#9E9FA23B33F5DD77
(1685659523.738891) vcan1 104#2514D609C207856C
(1685659523.749392) vcan1 104#AA1C6175AD863672
(1685659523.759503) vcan1 104#1AA7574AF392AA5F
(1685659523.771869) vcan1 104#96F5665126529F54
(1685659523.783339) vcan1 104#FA7D373510210F65
(1685659523.794858) vcan1 104#AE831C413D886753
(1685659523.806263) vcan1 104#86E55A56D0D21D3A
(1685659523.817850) vcan1 104#C70F052C77A14765
(1685659523.829578) vcan1 104#9A48333E1E391415
(1685659523.839988) vcan1 104#CD86126CFCB54137
(1685659523.850138) vcan1 104#FF5D10757E4C8D22
(1685659523.861247) vcan1 104#8E0C1F628263F70B
(1685659523.872292) vcan1 104#E349951BA3AFF503
(1685659523.883156) vcan1 104#6450AF471C189B03
(1685659523.893299) vcan1 104#8CD6877D02F05103
(1685659523.903475) vcan1 104#500D797BB2EA5D07
(1685659523.913587) vcan1 104#C5F7D66FFA29DA70
(1685659523.923688) vcan1 104#5F719479DF9E2E3A
(1685659523.933771) vcan1 104#EDBC8450F566FB4A
(1685659523.943947) vcan1 104#05F1CD0EE83ABC05
(1685659523.954046) vcan1 104#06880A30B474EA4F
(1685659523.964250) vcan1 104#25C323598C6D6506
(1685659523.974329) vcan1 104#8447080AECD22805
(1685659523.984405) vcan1 104#030FAD6B1F903B48
(1685659523.994554) vcan1 104#0B0C3D1AD095BF57
(1685659524.004747) vcan1 104#1B467D7F0A6A4D0F
(1685659524.015006) vcan1 104#4EE24C7AAA529C61
(1685659524.025128) vcan1 104#8CCD441B322CE215
(1685659524.035941) vcan1 104#4D029265F11DF462
(1685659524.046018) vcan1 104#4E447D19DAD81963
(1685659524.056321) vcan1 104#F30D46669E51F614
(1685659524.066746) vcan1 104#8CC3776AB8051D56
(1685659524.076877) vcan1 104#997BD005EB340C64
(1685659524.087328) vcan1 104#97A44B1086385556
(1685659524.097750) vcan1 104#E19B072F9D95191F
(1685659524.108185) vcan1 104#6E73115CE723125F
(1685659524.118744) vcan1 104#510A046F94363535
(1685659524.129355) vcan1 104#73917765D5510C79
(1685659524.141175) vcan1 104#80095E3A76A02451
(1685659524.153111) vcan1 104#F4E147418B159B54
(1685659524.164460) vcan1 104#4636E4281028C540
(1685659524.174542) vcan1 104#957FE86394183123
(1685659524.184672) vcan1 104#BA7A6122224D2D7F
(1685659524.195582) vcan1 104#C6441339077DF307
(1685659524.206105) vcan1 104#136B216215899052
(1685659524.218408) vcan1 104#E1550D6B06796748
(1685659524.229343) vcan1 104#B3DA86676D198555
(1685659524.239686) vcan1 104#BF7E841E4C56576D
(1685659524.251442) vcan1 104#594E91395623D02E
(1685659524.262249) vcan1 104#D38EAC433AEA9868
(1685659524.272498) vcan1 104#F3B8E94D4102BE1F
(1685659524.282831) vcan1 104#210EAB4744C3ED3C
(1685659524.293495) vcan1 104#D538F354949F222D
(1685659524.304072) vcan1 104#1A15FA355642510F
(1685659524.314540) vcan1 104#0A40477E0EF74177
(1685659524.324889) vcan1 104#E157EC6350762B27
(1685659524.335059) vcan1 104#1E1F073877D7D447
(1685659524.345153) vcan1 104#E48E5C4AD899685A
(1685659524.355553) vcan1 104#99240247ABD36F03
(1685659524.366067) vcan1 104#E0165C62AC8F2329
(1685659524.376406) vcan1 104#C05C0056C16C694D
(1685659524.387324) vcan1 104#B2088B717337873D
(1685659524.398046) vcan1 104#2F86EE2271870F10
(1685659524.408502) vcan1 104#C08DDE2A88D47F5C
(1685659524.418887) vcan1 104#C8AADF3E931C8B6E
(1685659524.429072) vcan1 104#C2BE1845BB63C90C
(1685659524.440170) vcan1 104#D41E490EE3CCC30C
(1685659524.452206) vcan1 104#0027B749AA573C63
(1685659524.464208) vcan1 104#776CE6391A3CB17F
(1685659524.476313) vcan1 104#009A8D7281AC2D38
(1685659524.487710) vcan1 104#2833F376E1F17956
(1685659524.499890) vcan1 104#D122595F4752FA2E
(1685659524.510576) vcan1 104#58C94E1EB5B1B529
(1685659524.521344) vcan1 104#1FEC6209F1ED5065
(1685659524.531982) vcan1 104#6085252DFF02BF6B
(1685659524.542578) vcan1 104#9D7D740E20E22503
(1685659524.552870) vcan1 104#C16F28395086FF7F
(1685659524.562973) vcan1 104#9419AD40F0F5165C
(1685659524.573174) vcan1 104#C10D0F1054A78B6B
(1685659524.583421) vcan1 104#78CA963889B8EE4E
(1685659524.593501) vcan1 104#E7C3165A3A89AF7D
(1685659524.604401) vcan1 104#451CB85BBBE25F68
(1685659524.614476) vcan1 104#1D56730A45436F25
(1685659524.625128) vcan1 104#653A9C4B94C25944
(1685659524.635849) vcan1 104#5F7F202565D4293E
(1685659524.646370) vcan1 104#156F877C87B2131C
(1685659524.656828) vcan1 104#47C6A314E691E05B
(1685659524.667221) vcan1 104#CE040E4B9F8FF232
(1685659524.677444) vcan1 104#9B439605EEF07054
(1685659524.688158) vcan1 104#917D4318FCC8BB32
(1685659524.699116) vcan1 104#EDF32F402EFBB726
(1685659524.709772) vcan1 104#1CABE135AE635879
(1685659524.719933) vcan1 104#7E81B726B0C48E76
(1685659524.730090) vcan1 104#9E596F55408FC636
(1685659524.740490) vcan1 104#046C1A621624060E
(1685659524.751273) vcan1 104#C947B505EB2F313C
(1685659524.761410) vcan1 104#50ADB50B0E646D61
(1685659524.771987) vcan1 104#A71291246D032916
(1685659524.782145) vcan1 104#53A7DC060C4D2D70
(1685659524.792295) vcan1 104#01C6825AB226FD2B
(1685659524.802389) vcan1 104#7221572E16350A57
(1685659524.812559) vcan1 104#3AD91048B9E7FA42
(1685659524.823532) vcan1 104#FCC6EA3208DE1E13
(1685659524.833768) vcan1 104#5877ED75980A8138
(1685659524.843853) vcan1 104#F6CE8F67E9F4300E
(1685659524.853948) vcan1 104#94D33C6BE4C2BF27
(1685659524.864077) vcan1 104#18F0E834B07E1E21
(1685659524.874243) vcan1 104#922618219671A05B
(1685659524.884436) vcan1 104#6143AD1731808776
(1685659524.894690) vcan1 104#D600671265AFC779
(1685659524.904811) vcan1 104#47A48D04A0481C18
(1685659524.914899) vcan1 104#51DFF83598514310
(1685659524.925000) vcan1 104#AEAC8979F8F1895A
(1685659524.935138) vcan1 104#05556C2602546600
(1685659524.945228) vcan1 104#043FB74A071BEF00
(1685659524.955302) vcan1 104#B47A632C76600E79
(1685659524.965381) vcan1 104#1D50F957EE537474
(1685659524.975514) vcan1 104#2F48093C1A17E40A
(1685659524.987448) vcan1 104#F731930788BFF631
(1685659524.997516) vcan1 104#B2216543ED00236F
(1685659525.007633) vcan1 104#71B4274046F5A12E
(1685659525.017706) vcan1 104#D1C3E21689A41075
(1685659525.027779) vcan1 104#F673C04F64EAFA37
(1685659525.037849) vcan1 104#2016B15057B76D67
(1685659525.047937) vcan1 104#956A822EF6161863
(1685659525.058221) vcan1 104#BD663561DC0E1033
(1685659525.069087) vcan1 104#965F347B0E462E17
(1685659525.080035) vcan1 104#74605343450CBE74
(1685659525.090106) vcan1 104#0638B8717AB5BF69
(1685659525.100178) vcan1 104#476024750A776F3C
(1685659525.110219) vcan1 104#81D0AE6AFBDA8721
(1685659525.120452) vcan1 104#81D77D359E20A842
(1685659525.131171) vcan1 104#EA2EFC15B01F8771
(1685659525.141247) vcan1 104#B8378C4DE1608F1D
(1685659525.151645) vcan1 104#38DF7D236A59F110
(1685659525.162729) vcan1 104#CE61B20CAA93A563
(1685659525.172797) vcan1 104#B04E933FA0259523
(1685659525.185072) vcan1 104#3338B658A7C2530F
(1685659525.195936) vcan1 104#0410905B534E6729
(1685659525.205987) vcan1 104#FE79C176997A120A
(1685659525.216157) vcan1 104#4A657F0CBBE0F657
(1685659525.227275) vcan1 104#7589223DE0C4B307
(1685659525.239856) vcan1 104#C926256FEAE97500
(1685659525.249927) vcan1 104#25D1717CCF5EDD60
(1685659525.261972) vcan1 104#649F356A6C319671
(1685659525.273064) vcan1 104#DAD54C1DE56FE454
(1685659525.285650) vcan1 104#680C1E135BADCA52
(1685659525.296982) vcan1 104#83908C17523B1A29
(1685659525.307565) vcan1 104#0BCD51443CC81865
(1685659525.320152) vcan1 104#339CA94644ACCF67
(1685659525.332743) vcan1 104#A6210A7601FE5B53
(1685659525.345336) vcan1 104#EE3F754B57709D35
(1685659525.356270) vcan1 104#A123F17621782B24
(1685659525.368854) vcan1 104#FE32F144A5338152
(1685659525.379942) vcan1 104#75C6924DFCACB23B
(1685659525.392530) vcan1 104#3EAE935CBF2B125A
(1685659525.405126) vcan1 104#B88DA913B437B619
(1685659525.417719) vcan1 104#9FF0C56181B4CE02
(1685659525.428682) vcan1 104#9E212C1AC5C1375E
(1685659525.441274) vcan1 104#5113AC6302C16104
(1685659525.453670) vcan1 104#31F3CD4F2BE9F800
(1685659525.464581) vcan1 104#E730465999FFEB62
(1685659525.474651) vcan1 104#8696C3536AC1D270
(1685659525.485418) vcan1 104#EB3A060C91631518
(1685659525.497548) vcan1 104#A689EB551ED7AF52
(1685659525.510140) vcan1 104#D50FE57F4DABF54B
(1685659525.522725) vcan1 104#20D50B26C34F5A4B
(1685659525.535316) vcan1 104#A41B9301C1F8FC1C
(1685659525.546038) vcan1 104#E5C7856FA24E8446
(1685659525.556107) vcan1 104#672C7E6F5A8E183D
(1685659525.568586) vcan1 104#9EFB3602A5DA114C
(1685659525.579606) vcan1 104#19BA2A175689E015
(1685659525.592022) vcan1 104#5912C865B8AAF078
(1685659525.604209) vcan1 104#D83DAF18F733F47F
(1685659525.616800) vcan1 104#7D6C285729515B7C
(1685659525.628166) vcan1 104#F9F45504AF5FF626
(1685659525.639445) vcan1 104#543A547DE0259C5D
(1685659525.651154) vcan1 104#485FE209DAD01751
(1685659525.663462) vcan1 104#4BE76E4E349AE815
(1685659525.675432) vcan1 104#6B342D69F1705A24
(1685659525.687930) vcan1 104#5271986841441269
(1685659525.700521) vcan1 104#3E1C50707246A40E
(1685659525.713117) vcan1 104#04946C34E237E371
(1685659525.725731) vcan1 104#343FA12BE95BF223
(1685659525.738327) vcan1 104#848667389B6B1F1B
(1685659525.748916) vcan1 104#43EA0A6123829E3A
(1685659525.759774) vcan1 104#404631675CA43578
(1685659525.770204) vcan1 104#790B7F509A58F94C
(1685659525.781096) vcan1 104#154F267151492E69
(1685659525.791241) vcan1 104#918CED4C92BB4E48
(1685659525.801482) vcan1 104#7A9A89658B814351
(1685659525.811589) vcan1 104#411B456FCED4DD62
(1685659525.822142) vcan1 104#6BA7DF2E8A7A2779
(1685659525.832582) vcan1 104#A8A5F533B68E4E7D
(1685659525.842779) vcan1 104#BE14100F14DA221D
(1685659525.853010) vcan1 104#A8FFA8211086A877
(1685659525.863284) vcan1 104#551E3506E61BF911
(1685659525.873685) vcan1 104#83CC4C0659B2A13A
(1685659525.883853) vcan1 104#C953DC03B70BEE31
(1685659525.894512) vcan1 104#430E945E4DDA433C
(1685659525.904812) vcan1 104#52770D4D86F89E3F
(1685659525.915116) vcan1 104#705CE27692BD3E34
(1685659525.925225) vcan1 104#E39CD437EA676147
(1685659525.935329) vcan1 104#2C163801F8EBFA28
(1685659525.947372) vcan1 104#3BB18F30BEA2254E
(1685659525.958750) vcan1 104#8AA74971B64B1916
(1685659525.970117) vcan1 104#4924691FCCC28E60
(1685659525.980660) vcan1 104#8420F778B4CB484E
(1685659525.991067) vcan1 104#563DB6592DC6EC2C
(1685659526.001429) vcan1 104#6B5A974B1452C668
(1685659526.011652) vcan1 104#41A00F4A135A406D
(1685659526.021734) vcan1 104#24D86E6096BE4450
(1685659526.032230) vcan1 104#F975397FA7A4BB66
(1685659526.042449) vcan1 104#EF70E60AC2C91503
(1685659526.054070) vcan1 104#5EB0A918327F7A69
(1685659526.064163) vcan1 104#10A4593FB027B765
(1685659526.074768) vcan1 104#B977192980003C36
(1685659526.085012) vcan1 104#43E5F5199C14EE60
(1685659526.095227) vcan1 104#6A689D7D6FFB2D1B
(1685659526.105315) vcan1 104#9400E909A6192D2E
(1685659526.116371) vcan1 104#2D9E53691EA8327B
(1685659526.128986) vcan1 104#5C65464476C2BC08
(1685659526.139674) vcan1 104#EA6AC15BE0853D3D
(1685659526.149840) vcan1 104#2B8E055740A87735
(1685659526.160720) vcan1 104#0D4C2A6A96E89C22
(1685659526.172316) vcan1 104#54FA3D1E4EEC3934
(1685659526.183035) vcan1 104#A942DD0F79D2AC7E
(1685659526.194843) vcan1 104#E4AA7E04A2B8160F
(1685659526.205138) vcan1 104#20776865D41B650F
(1685659526.215536) vcan1 104#65822C127F27127E
(1685659526.226558) vcan1 104#069BDF7875268651
(1685659526.237071) vcan1 104#2F4FC963BF12F921
(1685659526.247547) vcan1 104#F526C2077234BF7D
(1685659526.259449) vcan1 104#5B27E702608F5F05
(1685659526.271647) vcan1 104#E22FED18EF27D00C
(1685659526.282019) vcan1 104#06A98C330FCE4002
(1685659526.292249) vcan1 104#0ED00208620ED377
(1685659526.302546) vcan1 104#8690FD0AF83AC463
(1685659526.312655) vcan1 104#42941035B11E0362
(1685659526.323553) vcan1 104#39E33B1950E03A1F
(1685659526.334502) vcan1 104#4707A0048DDD7937
(1685659526.345425) vcan1 104#9ECC7453F0497D14
(1685659526.356510) vcan1 104#06B026368377F357
(1685659526.367791) vcan1 104#9202942327278F1B
(1685659526.377948) vcan1 104#57935867F784C035
(1685659526.388011) vcan1 104#A64EA1195D2E3860
(1685659526.399289) vcan1 104#6CAB4607D59D6A7D
(1685659526.410642) vcan1 104#1D41310262D2080F
(1685659526.422123) vcan1 104#48D2297B78681805
(1685659526.433846) vcan1 104#C26168142A021714
(1685659526.445848) vcan1 104#6890E811C80AF547
(1685659526.456243) vcan1 104#39D057167660EB19
(1685659526.466402) vcan1 104#2A19C83FBF605521
(1685659526.477339) vcan1 104#6E9BAF7D6CADD874
(1685659526.488244) vcan1 104#707F5803A77EEB16
(1685659526.498998) vcan1 104#BC8D1314B786F807
(1685659526.509720) vcan1 104#355C654E5B5A8867
(1685659526.520427) vcan1 104#A7D0751C3B0C8C04
(1685659526.531124) vcan1 104#DED17B3F3AD30940
(1685659526.541243) vcan1 104#62331B203565D426
(1685659526.552172) vcan1 104#3158CA750882BC39
(1685659526.562930) vcan1 104#92930C079E03117D
(1685659526.573100) vcan1 104#DE1F2737AFD43D09
(1685659526.583499) vcan1 104#00D6190C26F25032
(1685659526.594123) vcan1 104#283D560EC2378220
(1685659526.604399) vcan1 104#50F4674690CD3E20
(1685659526.615432) vcan1 104#8A42776889C4BF5C
(1685659526.627438) vcan1 104#062E2A3AB45B3F28
(1685659526.638301) vcan1 104#4925157E74C9D937
(1685659526.649520) vcan1 104#2009181DB9A46D01
(1685659526.660176) vcan1 104#1C48C54EDD962B31
(1685659526.672720) vcan1 104#712B660951A42A1D
(1685659526.684659) vcan1 104#38F1B31818FCDB25
(1685659526.695356) vcan1 104#8CB0B62116C32F58
(1685659526.707236) vcan1 104#52CFE565EFE3D141
(1685659526.719117) vcan1 104#4B28047F8427B05B
(1685659526.729408) vcan1 104#F7658E7BDDBB1006
(1685659526.740255) vcan1 104#222BC158D585B532
(1685659526.750483) vcan1 104#8D904E0F2201DB64
(1685659526.761396) vcan1 104#FB770665B5CDA41D
(1685659526.772255) vcan1 104#E4385D054B6C6E2B
(1685659526.783026) vcan1 104#459BE33D6E7BD46D
(1685659526.794076) vcan1 104#D5302E084BC90D78
(1685659526.804824) vcan1 104#22D713161E564306
(1685659526.815566) vcan1 104#BF92E72F42E02B33
(1685659526.826179) vcan1 104#D7FAB007DBDAAC7E
(1685659526.836438) vcan1 104#1F77576448261711
(1685659526.846592) vcan1 104#2C7FD71B57680B7D
(1685659526.856729) vcan1 104#6122F336B92F8E3D
(1685659526.867996) vcan1 104#6D2B3B55B3F1D81C
(1685659526.878505) vcan1 104#A813607FB8533F54
(1685659526.890202) vcan1 104#371989789F79EE7A
(1685659526.900498) vcan1 104#960F505A59444A51
(1685659526.910618) vcan1 104#75FFA32D23A09E69
(1685659526.921807) vcan1 104#7B4525367077AA12
(1685659526.931921) vcan1 104#D86D43075F7E823B
(1685659526.942099) vcan1 104#BCE3183E1D092745
(1685659526.952803) vcan1 104#CDF9562991144746
(1685659526.962987) vcan1 104#68D2343DEFD06A3F
(1685659526.973512) vcan1 104#AF6A8A4C27651C6D
(1685659526.983907) vcan1 104#32B1967286653B54
(1685659526.994153) vcan1 104#0340C96B5128EE56
(1685659527.004387) vcan1 104#CF8B52652FBFA007
(1685659527.016367) vcan1 104#A990F95330AE451C
(1685659527.027195) vcan1 104#E8EE2E4516BC3429
(1685659527.038281) vcan1 104#E39F1E3990028F44
(1685659527.050166) vcan1 104#CF0F747D1BB9A731
(1685659527.062406) vcan1 104#307C7D3F651FC457
(1685659527.074381) vcan1 104#74FDF102A57B216D
(1685659527.086260) vcan1 104#88BF6241F0421739
(1685659527.097203) vcan1 104#15F3CB7F602DA648
(1685659527.109340) vcan1 104#4FC19974D1D6E43D
(1685659527.121201) vcan1 104#7D36CD0D1DBBF01D
(1685659527.132333) vcan1 104#62EB2B04E508024B
(1685659527.142445) vcan1 104#0C8C5B5D1156B650
(1685659527.152948) vcan1 104#0C6E1E383E3DF24F
(1685659527.163079) vcan1 104#98BBF1240FAEE723
(1685659527.173444) vcan1 104#9065E0266747440A
(1685659527.185811) vcan1 104#3F6D882B39F6D97A
(1685659527.196169) vcan1 104#97F58926275CB770
(1685659527.207040) vcan1 104#4FB20E247A95A85F
(1685659527.217192) vcan1 104#B85E46351EC28221
(1685659527.227278) vcan1 104#954E5011E8DAC374
(1685659527.237380) vcan1 104#83E146790A4C4214
(1685659527.247597) vcan1 104#8D56E5610BA1A93A
(1685659527.258412) vcan1 104#FA8E594DA249B161
(1685659527.268992) vcan1 104#6BCE4F034950F341
(1685659527.279281) vcan1 104#7420961FE8041D11
(1685659527.289465) vcan1 104#660BE45FD60BC223
(1685659527.300605) vcan1 104#CD0D1F5C73973F3D
(1685659527.311793) vcan1 104#E8617874DA7B3D14
(1685659527.323014) vcan1 104#B1D4310D801D6A19
(1685659527.334300) vcan1 104#E9292538413A1234
(1685659527.344762) vcan1 104#E764AE232897AD63
(1685659527.354889) vcan1 104#7A30EC2E7E5A384A
(1685659527.364992) vcan1 104#50F36454CAE2FA52
(1685659527.375118) vcan1 104#F8EFE0290852AB09
(1685659527.385270) vcan1 104#E8A47D748E3E313B
(1685659527.395480) vcan1 104#F02C6F7E6C86C46D
(1685659527.405750) vcan1 104#988A734F7D835460
(1685659527.416204) vcan1 104#77276E289219CD1C
(1685659527.426563) vcan1 104#1FCD0542E3F5BD2B
(1685659527.436695) vcan1 104#DB69C05E93ED9B61
(1685659527.447397) vcan1 104#CBFADA3C4275A43E
(1685659527.457541) vcan1 104#6AF95D059908FA18
(1685659527.467699) vcan1 104#B50CE47B525BD679
(1685659527.478303) vcan1 104#7384372D66E11509
(1685659527.489187) vcan1 104#D27840135CAE5C65
(1685659527.499971) vcan1 104#A81B283DB9DDEE36
(1685659527.510385) vcan1 104#85450A49224C146C
(1685659527.520708) vcan1 104#37382701D5386F1D
(1685659527.530807) vcan1 104#EC2E0F3F2F28082B
(1685659527.541379) vcan1 104#DD8A1A27D5D38C33
(1685659527.551564) vcan1 104#BD663966CDB78925
(1685659527.561818) vcan1 104#415A512155F1AC35
(1685659527.572574) vcan1 104#4A3BDE05B881BF49
(1685659527.583030) vcan1 104#E70A7A526908E447
(1685659527.594519) vcan1 104#9B777D75C3743A31
(1685659527.606241) vcan1 104#FDF57F2967725832
(1685659527.617245) vcan1 104#05EADE6F67EFDD2E
(1685659527.629194) vcan1 104#007B524BBAF6C26B
(1685659527.641268) vcan1 104#B94AB42873FF8978
(1685659527.653365) vcan1 104#20D8D8748BC3F43B
(1685659527.663931) vcan1 104#CFADE65DC8F30032
(1685659527.676195) vcan1 104#44A1E37254F3F026
(1685659527.686771) vcan1 104#EB3F151E7BD90A74
(1685659527.698074) vcan1 104#292C6044D76E245D
(1685659527.710101) vcan1 104#AA01131F06B77A6B
(1685659527.720358) vcan1 104#AC42B11068684C05
(1685659527.732001) vcan1 104#D36E0411ED9C0232
(1685659527.743822) vcan1 104#BD59F93A1DAAE216
(1685659527.754405) vcan1 104#A61EC27BA564730D
(1685659527.765335) vcan1 104#87B2C65E41963F71
(1685659527.776430) vcan1 104#68D9AD3E84A84608
(1685659527.787569) vcan1 104#A80898236DC38C2E
(1685659527.798748) vcan1 104#EB972437A883EA6E
(1685659527.809710) vcan1 104#27BA4F1AA4E2D85F
(1685659527.820412) vcan1 104#1B8374674792280F
(1685659527.830785) vcan1 104#2FA6CD1BEB305B45
(1685659527.841018) vcan1 104#108629417347B10E
(1685659527.851291) vcan1 104#3F244C6CFBC53E5F
(1685659527.861752) vcan1 104#EE20BC026950AC30
(1685659527.871837) vcan1 104#D234633C9822CF21
(1685659527.882355) vcan1 104#6F07271C7F77144D
(1685659527.892648) vcan1 104#008B1B2743762B2D
(1685659527.903248) vcan1 104#6C14177FBEE41462
(1685659527.913423) vcan1 104#60200E441233D97A
(1685659527.923565) vcan1 104#6349886FE7D2D422
(1685659527.934262) vcan1 104#54C9186CCB22362E
(1685659527.944608) vcan1 104#6B7B1B2BFCD1B00F
(1685659527.954751) vcan1 104#38E6C25C56134062
(1685659527.964976) vcan1 104#A5559B7E5FA01277
(1685659527.975584) vcan1 104#FAF51842C0D80F66
(1685659527.987216) vcan1 104#A6323B06299CE65D
(1685659527.998727) vcan1 104#AB096B2BB6B86447
(1685659528.010011) vcan1 104#9CE3976CEB2DB717
(1685659528.020937) vcan1 104#B17EA3268A04546F
(1685659528.031515) vcan1 104#547E634884B30663
(1685659528.041758) vcan1 104#23272311C3858A64
(1685659528.052727) vcan1 104#032B1B3023B23E38
(1685659528.063419) vcan1 104#06FCB5116F3F322F
(1685659528.073806) vcan1 104#E196531A671CC455
(1685659528.084027) vcan1 104#82720B2A44E0DB09
(1685659528.094299) vcan1 104#4EEF9878D63B2416
(1685659528.104516) vcan1 104#0F031238BA6AB423
(1685659528.114782) vcan1 104#D20DD52547E9D414
(1685659528.124863) vcan1 104#107EF40577637024
(1685659528.134969) vcan1 104#A689E70B0B740D48
(1685659528.146125) vcan1 104#383C800A4DBC2212
(1685659528.156233) vcan1 104#3410F425E345EB35
(1685659528.167403) vcan1 104#03758759D1F38B12
(1685659528.177608) vcan1 104#CE73A24DB5F32A00
(1685659528.188140) vcan1 104#5BF8DF0122F20516
(1685659528.198904) vcan1 104#39A731637E1F0313
(1685659528.209644) vcan1 104#E677907A3CD24C13
(1685659528.220283) vcan1 104#A2D1414BEC73460C
(1685659528.230858) vcan1 104#AB117F4283689565
(1685659528.241413) vcan1 104#53900A622D848A6C
(1685659528.251898) vcan1 104#C848716FA27FA35A
(1685659528.262394) vcan1 104#03C0AE02D74B8327
(1685659528.272572) vcan1 104#5CEA577ED6CD8328
(1685659528.282679) vcan1 104#1F35583C6C684C04
(1685659528.293049) vcan1 104#4D31F44CC5BE3F48
(1685659528.303555) vcan1 104#77DC594C856D7457
(1685659528.314350) vcan1 104#127B625AACEC4D72
(1685659528.325029) vcan1 104#69B35F0D16F0E933
(1685659528.335509) vcan1 104#7DE0D9043727025B
(1685659528.345742) vcan1 104#CBE31434D8D8B906
(1685659528.356243) vcan1 104#5A190871048B4617
(1685659528.366449) vcan1 104#57F8BC194091986B
(1685659528.376687) vcan1 104#405D932AF9C9FE64
(1685659528.387176) vcan1 104#2C05DF77EB6E126D
(1685659528.398279) vcan1 104#7C32944A8095E959
(1685659528.409597) vcan1 104#19F39C59447B053A
(1685659528.420306) vcan1 104#22158D341CB34B5C
(1685659528.430938) vcan1 104#1CC788617EFFE432
(1685659528.441289) vcan1 104#F280CF043BFCE01D
(1685659528.451552) vcan1 104#EA67313740B2C351
(1685659528.462230) vcan1 104#00BB206662448B03
(1685659528.473329) vcan1 104#C51F382913368340
(1685659528.484511) vcan1 104#0E31D9752ED39736
(1685659528.495312) vcan1 104#29266D748B11B37A
(1685659528.506252) vcan1 104#66FA9911F4098228
(1685659528.516723) vcan1 104#63EA6C01C013A202
(1685659528.527106) vcan1 104#F894C83FBAE2291B
(1685659528.537399) vcan1 104#00A53A6E38F25B6A
(1685659528.547642) vcan1 104#B3AC28002CAA1966
(1685659528.558443) vcan1 104#23616E5730DFBC4A
(1685659528.569250) vcan1 104#AC3F03403C540B31
(1685659528.579856) vcan1 104#745AC204CE549074
(1685659528.590304) vcan1 104#5907570D90214B66
(1685659528.600878) vcan1 104#4C5475274B882612
(1685659528.611238) vcan1 104#CB1D2C0437BCA65E
(1685659528.621522) vcan1 104#8B3AEA63CCD84C6A
(1685659528.631657) vcan1 104#99003262515A220D
(1685659528.643545) vcan1 104#DF0ED02AA7310B58
(1685659528.653863) vcan1 104#7F2DBA4308353D1F
(1685659528.664181) vcan1 104#3243BE52E5275455
(1685659528.674267) vcan1 104#FC3EBF47952D2B54
(1685659528.684374) vcan1 104#A53BF657F4D38707
(1685659528.695148) vcan1 104#5010556FA5E03046
(1685659528.705550) vcan1 104#2CC6E37103BD7D6F
(1685659528.715672) vcan1 104#D28A4A2C4F275249
(1685659528.726348) vcan1 104#339C3A3A7ECA4D6C
(1685659528.736938) vcan1 104#8C7B5D7AA8F6FC3E
(1685659528.747418) vcan1 104#4D1FDE60E582B407
(1685659528.757622) vcan1 104#3818482599735308
(1685659528.767756) vcan1 104#300BDB1904367429
(1685659528.778170) vcan1 104#D02FFA66BC45C57D
(1685659528.788494) vcan1 104#D00EC11369302C49
(1685659528.798676) vcan1 104#0DA0E70AAF1D913E
(1685659528.808996) vcan1 104#106237218CCDA14E
(1685659528.819402) vcan1 104#B752CE5D42A5F573
(1685659528.830454) vcan1 104#72F5F523B3918D25
(1685659528.841118) vcan1 104#D8D220481731EC7B
(1685659528.853713) vcan1 104#A765152D28E37537
(1685659528.866330) vcan1 104#BD111D42D32BF91E
(1685659528.878459) vcan1 104#2BA0F3268F9C676E
(1685659528.888699) vcan1 104#22534B685F3C2E61
(1685659528.899214) vcan1 104#0D67B55AAECEA862
(1685659528.909552) vcan1 104#07332B205A86933B
(1685659528.919962) vcan1 104#93515D6A3F4B7345
(1685659528.930272) vcan1 104#F4F9E643C45C3804
(1685659528.940361) vcan1 104#4381E76EC429E12A
(1685659528.951011) vcan1 104#80A2FD011390A802
(1685659528.961665) vcan1 104#2E5A0D748D42E50C
(1685659528.972796) vcan1 104#C2AD39413EBC4415
(1685659528.983973) vcan1 104#1910875B7900081F
(1685659528.994937) vcan1 104#81613A098B057D7F
(1685659529.005856) vcan1 104#2C92954459345B51
(1685659529.016537) vcan1 104#A336697BD3F7AA71
(1685659529.026699) vcan1 104#8117D1086048863D
(1685659529.036786) vcan1 104#A623A410ACB7C42F
(1685659529.048486) vcan1 104#EFE4ED2BC976EF78
(1685659529.061102) vcan1 104#0BF4F210FC4BA306
(1685659529.071837) vcan1 104#7745985B12271E31
(1685659529.084032) vcan1 104#57D236420B97F545
(1685659529.096154) vcan1 104#527291764BCC1D06
(1685659529.108437) vcan1 104#CFF32D4A95F37865
(1685659529.120540) vcan1 104#0FF6FE304F962B4C
(1685659529.132434) vcan1 104#A98321683D500C25
(1685659529.144176) vcan1 104#DCD810596B315B29
(1685659529.154280) vcan1 104#7C0C513AF5E89734
(1685659529.164630) vcan1 104#E5316348FD6D8B43
(1685659529.176038) vcan1 104#81EE143411C4F80C
(1685659529.187988) vcan1 104#56A2E61424257E2F
(1685659529.199849) vcan1 104#E5BBA37ED7B9B71D
(1685659529.211729) vcan1 104#846D046D8BDF470F
(1685659529.223200) vcan1 104#83717C4D7352F218
(1685659529.234428) vcan1 104#545637088F656F5E
(1685659529.244548) vcan1 104#6F9E951FCC9BCF63
(1685659529.254802) vcan1 104#A18C8D0FC670CC61
(1685659529.264942) vcan1 104#D732C529F3FE1E06
(1685659529.276205) vcan1 104#113DEA67A626F373
(1685659529.287214) vcan1 104#89F2976B2133E918
(1685659529.298232) vcan1 104#F5BC1E403276B953
(1685659529.309382) vcan1 104#5E83F53DD1952F19
(1685659529.320726) vcan1 104#9DA7147DDA8F4678
(1685659529.331746) vcan1 104#C67EC74D82D97745
(1685659529.342391) vcan1 104#D7FDD13B476DDC01
(1685659529.354222) vcan1 104#949D70522DA0B850
(1685659529.366351) vcan1 104#6B925A3179591451
(1685659529.377484) vcan1 104#045A706EEFFF5E1E
(1685659529.389643) vcan1 104#04395C6088CBEC3B
(1685659529.401839) vcan1 104#62525137598F9368
(1685659529.412176) vcan1 104#17315C1AD2F0E656
(1685659529.423023) vcan1 104#252B634CB8BDE929
(1685659529.433345) vcan1 104#9861B338FC5D2876
(1685659529.443591) vcan1 104#ACBC0830AA9E9D20
(1685659529.455459) vcan1 104#A2841B6A35AFA01B
(1685659529.467437) vcan1 104#CBD1863997413A2A
(1685659529.479427) vcan1 104#67255A6F29557C77
(1685659529.491472) vcan1 104#68D7694304CD6E6C
(1685659529.502764) vcan1 104#04E5C26F2E563111
(1685659529.513451) vcan1 104#87A6E631DBE2942B
(1685659529.523576) vcan1 104#76C30D131B445704
(1685659529.533948) vcan1 104#09834D7CE1556844
(1685659529.546229) vcan1 104#949D6B550DDDBD6A
(1685659529.556571) vcan1 104#D155C76298D6C735
(1685659529.568020) vcan1 104#95A8AA2633A8181A
(1685659529.578947) vcan1 104#F1655B1EACD90641
(1685659529.589236) vcan1 104#0599FF701691BE6A
(1685659529.599944) vcan1 104#6597F06A9EFAB229
(1685659529.611765) vcan1 104#12EFE6601154F91A
(1685659529.622080) vcan1 104#4899504AB473024B
(1685659529.633110) vcan1 104#46039A36136BD703
(1685659529.643508) vcan1 104#4BB53C75AD28F425
(1685659529.654474) vcan1 104#3CC0537BB38CA638
(1685659529.666239) vcan1 104#B1F5621240A5166B
(1685659529.677978) vcan1 104#E2E2D749389C4944
(1685659529.689413) vcan1 104#1C88AB1658A6E55C
(1685659529.700071) vcan1 104#53E0A048250BF912
(1685659529.711434) vcan1 104#39FC4D21E77D0C1E
(1685659529.721720) vcan1 104#32E8B67D0A521504
(1685659529.731991) vcan1 104#8054D453C8906124
(1685659529.743521) vcan1 104#3EFA2D1E71BA2F72
(1685659529.753757) vcan1 104#746A686543932D0F
(1685659529.763905) vcan1 104#884BEE5CD9015950
(1685659529.774754) vcan1 104#E18DE0389A3AD53D
(1685659529.785353) vcan1 104#EA55526B29273103
(1685659529.795447) vcan1 104#4FAED7083059EC21
(1685659529.806366) vcan1 104#3C9208079A63147E
(1685659529.816600) vcan1 104#DD81E04779525C02
(1685659529.827443) vcan1 104#4EF0BA368F77435A
(1685659529.838077) vcan1 104#B9F7726D30D39200
(1685659529.848131) vcan1 104#C7138D1ED57F1E04
(1685659529.859405) vcan1 104#8879785D1BF42D67
(1685659529.869631) vcan1 104#FA8A1717C175C67E
(1685659529.879919) vcan1 104#02723A052D73CE14
(1685659529.891287) vcan1 104#CCC7DB0282C60E59
(1685659529.901705) vcan1 104#F50330390AC20921
(1685659529.912319) vcan1 104#F4803E4B696E981E
(1685659529.922569) vcan1 104#4D5537307CCC2C28
(1685659529.932812) vcan1 104#4370F16E2FE31769
(1685659529.943992) vcan1 104#160702662DC6435A
(1685659529.955158) vcan1 104#580A496C65B5D96E
(1685659529.965846) vcan1 104#5E1F307C959C5173
(1685659529.976937) vcan1 104#0019EE6C3BA11044
(1685659529.987919) vcan1 104#0EEFAD754E09A923
(1685659529.998861) vcan1 104#CA18541EC7E62063
(1685659530.009874) vcan1 104#7EDC3B24922CE13C
(1685659530.020948) vcan1 104#9D663F670656B401
(1685659530.031523) vcan1 104#AD200F2497F1567E
(1685659530.041859) vcan1 104#C7CB7A00AF924929
(1685659530.051956) vcan1 104#C464251393935603
(1685659530.062202) vcan1 104#32595802B968554C
(1685659530.073362) vcan1 104#9D55602426DA964D
(1685659530.084650) vcan1 104#23D7ED6AEBAA9754
(1685659530.095467) vcan1 104#A2A6C3756647DF59
(1685659530.106016) vcan1 104#1A8EAF3DB8ADC55B
(1685659530.116157) vcan1 104#930D23347298F829
(1685659530.127292) vcan1 104#1E639F4AF12C5330
(1685659530.137742) vcan1 104#07354A1D1E7C8D37
(1685659530.147841) vcan1 104#2DCE63741524F812
(1685659530.158865) vcan1 104#6C85365BF7E6B712
(1685659530.170386) vcan1 104#DD0A1976EA61727F
(1685659530.182484) vcan1 104#8913994F7A71585D
(1685659530.193043) vcan1 104#F0B726013634A873
(1685659530.204109) vcan1 104#1163AF5BB783A101
(1685659530.214654) vcan1 104#E6C6F11CD6C7D46E
(1685659530.225170) vcan1 104#4B17F80418204A1F
(1685659530.235487) vcan1 104#8F302A3BE86C5829
(1685659530.245808) vcan1 104#3EFAE06CB2071826
(1685659530.258052) vcan1 104#D317F07DE0A0A462
(1685659530.270119) vcan1 104#184FF77FEDA59F3B
(1685659530.281135) vcan1 104#984E6A3EAC5C1A34
(1685659530.293015) vcan1 104#603E9865B6B10909
(1685659530.304772) vcan1 104#9D896D646773E202
(1685659530.317403) vcan1 104#D42D9740CA57D158
(1685659530.329963) vcan1 104#7D97DA1540B3CD1B
(1685659530.342566) vcan1 104#C23E896B5AA2F30B
(1685659530.353175) vcan1 104#2A15401B4B52223B
(1685659530.363991) vcan1 104#D4134C691ACD661C
(1685659530.374265) vcan1 104#8286CA2EE576FB44
(1685659530.385633) vcan1 104#D250081E684DBC4B
(1685659530.398273) vcan1 104#BB3ED0331D680023
(1685659530.408660) vcan1 104#806D066B4B6FFA6E
(1685659530.418838) vcan1 104#05D5584CBE67E757
(1685659530.429386) vcan1 104#FD761215D9EC484A
(1685659530.439569) vcan1 104#9E088C3A16C60915
(1685659530.449843) vcan1 104#C692E8053657F678
(1685659530.461867) vcan1 104#C222244926D1806B
(1685659530.473756) vcan1 104#ED0800025FAC912D
(1685659530.485070) vcan1 104#8E44636EC1369742
(1685659530.495480) vcan1 104#2A0463060BDC3D04
(1685659530.506571) vcan1 104#02EA645EEC42EC71
(1685659530.517161) vcan1 104#657E31102CFFA479
(1685659530.527292) vcan1 104#37950E2D39927D79
(1685659530.537708) vcan1 104#47CC0B16B91BD95B
(1685659530.547870) vcan1 104#1E09793E191D1434
(1685659530.558575) vcan1 104#21699527DA474972
(1685659530.568709) vcan1 104#36851457A1D69B12
(1685659530.578855) vcan1 104#25B743613B5A6D23
(1685659530.589103) vcan1 104#5F3E836A222E5676
(1685659530.600169) vcan1 104#1447B66DFD460F25
(1685659530.610485) vcan1 104#38F45F0BDBD99E73
(1685659530.621028) vcan1 104#349E051EFA168454
(1685659530.631414) vcan1 104#01AB1F5F21A70520
(1685659530.641540) vcan1 104#5AC315028FEF824D
(1685659530.652466) vcan1 104#E2DD9C6284C77808
(1685659530.663434) vcan1 104#9ACBC051E4C70141
(1685659530.674219) vcan1 104#700A657AFF49F261
(1685659530.685459) vcan1 104#11C7A63AA79F7327
(1685659530.696172) vcan1 104#38DC6F5B5893B250
(1685659530.707369) vcan1 104#61BB4C0357E5E819
(1685659530.718949) vcan1 104#71B0C6048224E22A
(1685659530.730152) vcan1 104#312D320CA735DB5B
(1685659530.741489) vcan1 104#24FB7D3D56E4756D
(1685659530.751666) vcan1 104#E28F487F83390128
(1685659530.762215) vcan1 104#7812CC63F7D6FE6C
(1685659530.774850) vcan1 104#8180104DB1062C6F
(1685659530.785869) vcan1 104#D2B09D60B51E166B
(1685659530.796772) vcan1 104#AB1DB043D35BBD3F
(1685659530.807561) vcan1 104#D6C51B0B05E1C545
(1685659530.817939) vcan1 104#634B400DB8A3B86D
(1685659530.828328) vcan1 104#89A83E4EFD16015F
(1685659530.838522) vcan1 104#9D6BBA2EF9B2A348
(1685659530.849868) vcan1 104#FD60F340AE326169
(1685659530.860781) vcan1 104#A1521770353D631C
(1685659530.871910) vcan1 104#06C6133A020E6473
(1685659530.883082) vcan1 104#8C224C367776DA3E
(1685659530.895158) vcan1 104#8432461EBD4F7E42
(1685659530.906142) vcan1 104#1EACB51AA82DC45B
(1685659530.916982) vcan1 104#1334F42F003CFE19
(1685659530.927588) vcan1 104#2C67C5038C46C013
(1685659530.938188) vcan1 104#F712FD06ADE7D550
(1685659530.948323) vcan1 104#3D4DEC02C9C39A67
(1685659530.958858) vcan1 104#6206EC3BE86A9C46
(1685659530.969093) vcan1 104#9D1F582738CC0747
(1685659530.979492) vcan1 104#EE4B620C006B9834
(1685659530.990273) vcan1 104#F06FC03477F4A05A
(1685659531.002196) vcan1 104#FD8199138DDB7A63
(1685659531.014221) vcan1 104#71A74423FAE28C54
(1685659531.025180) vcan1 104#3B0EDC4C12FA5B13
(1685659531.036004) vcan1 104#3020F07041D4EF06
(1685659531.046580) vcan1 104#1408C006BC423C27
(1685659531.056758) vcan1 104#B84ACA45983A0625
(1685659531.067738) vcan1 104#7A92BA69D6F67F60
(1685659531.078542) vcan1 104#4168CA008DC6AE19
(1685659531.089352) vcan1 104#D7327E7A6DCF8F04
(1685659531.099873) vcan1 104#190D6F2DCE457B01
(1685659531.109963) vcan1 104#1AB76555565A5B30
(1685659531.121017) vcan1 104#980916697CBD5111
(1685659531.131901) vcan1 104#3FC5F77635296E10
(1685659531.142628) vcan1 104#B48959582D115A03
(1685659531.153053) vcan1 104#35940645A4F9190D
(1685659531.163587) vcan1 104#A405FB5D3216A058
(1685659531.175232) vcan1 104#32D5947015AD3F01
(1685659531.185893) vcan1 104#2DF92C2D6DE3703D
(1685659531.196570) vcan1 104#27A79B145D191D1E
(1685659531.214394) vcan1 104#AFB760443BAF5B1B
(1685659531.226704) vcan1 104#195C594567022B0A
(1685659531.237021) vcan1 104#D4E9614093EE132F
(1685659531.247424) vcan1 104#3EF9AA6A15522C41
(1685659531.257924) vcan1 104#21B5C248152C2965
(1685659531.268364) vcan1 104#8221BC453AC23176
(1685659531.280969) vcan1 104#E371A4669CD8211B
(1685659531.291627) vcan1 104#911C8D267B7BBA4F
(1685659531.303248) vcan1 104#1896732CD0E1841D
(1685659531.315254) vcan1 104#B0A42860CC1FCD04
(1685659531.326496) vcan1 104#FDF2DE20E5382F25
(1685659531.336935) vcan1 104#7019E711A1F8D97E
(1685659531.347181) vcan1 104#184FCF7DA2EE7B02
(1685659531.357907) vcan1 104#B7A519004548FC2A
(1685659531.368180) vcan1 104#10D2EC3FDE4CB514
(1685659531.379339) vcan1 104#A2611949BF894D04
(1685659531.389988) vcan1 104#1AFC1030BBBD720E
(1685659531.401025) vcan1 104#268C780EEEE57270
(1685659531.411970) vcan1 104#4FAC863D64852379
(1685659531.422424) vcan1 104#03389F3170614906
(1685659531.433022) vcan1 104#79B14C5E85595B77
(1685659531.443157) vcan1 104#AA237B7C5D23F144
(1685659531.453452) vcan1 104#21327D123B400823
(1685659531.463899) vcan1 104#D89EAB1439C8F03E
(1685659531.474508) vcan1 104#0B228D408943D474
(1685659531.485858) vcan1 104#05E8BD4308156C61
(1685659531.495973) vcan1 104#6E7C031A7501A555
(1685659531.506068) vcan1 104#AA0D466086CBD217
(1685659531.516424) vcan1 104#18F0205861B35F60
(1685659531.527108) vcan1 104#CB13CF4228C20D18
(1685659531.539113) vcan1 104#3F0015756D75E80B
(1685659531.551156) vcan1 104#E74B5B1C59FC2525
(1685659531.561310) vcan1 104#29335B1A0DD8D32A
(1685659531.572440) vcan1 104#47E2981578DFE157
(1685659531.584363) vcan1 104#725DF7234A1A3847
(1685659531.595287) vcan1 104#E8402B5EEB0E4402
(1685659531.607526) vcan1 104#CF73933E9264A65A
(1685659531.618241) vcan1 104#48323547F0A51051
(1685659531.629160) vcan1 104#CEA4AE7D21D1E05B
(1685659531.640455) vcan1 104#296E0110D9C63B3E
(1685659531.650584) vcan1 104#AA14B5502E56BF53
(1685659531.661362) vcan1 104#E2DBA71F1891B86A
(1685659531.671637) vcan1 104#A45764298CE9ED7F
(1685659531.684175) vcan1 104#9F5C8B02BC478501
(1685659531.694988) vcan1 104#ED9C4D606A705A45
(1685659531.705772) vcan1 104#E40993192C9D6255
(1685659531.716190) vcan1 104#D8E54251CB55EE35
(1685659531.726568) vcan1 104#8699887A01199E6B
(1685659531.736667) vcan1 104#D82DC260CD7B2110
(1685659531.747991) vcan1 104#79F87F434A8BB904
(1685659531.758316) vcan1 104#189659576139AB21
(1685659531.768518) vcan1 104#369AFD06E709ED15
(1685659531.779416) vcan1 104#F39D517C7ECC324E
(1685659531.790186) vcan1 104#D8AFFD66C142007A
(1685659531.800675) vcan1 104#9F9D132A011EFF76
(1685659531.811324) vcan1 104#9B093C3849B2C87A
(1685659531.821622) vcan1 104#3074BE4A7DE5E357
(1685659531.831784) vcan1 104#62438165D4CB2274
(1685659531.842408) vcan1 104#09CFD15701A00C68
(1685659531.852609) vcan1 104#9013A875F66B1F38
(1685659531.863499) vcan1 104#6B10672D741D3B0F
(1685659531.874901) vcan1 104#2209820D43F6A97E
(1685659531.887448) vcan1 104#3F732945A8A20A08
(1685659531.900077) vcan1 104#440F486A17A1EB25
(1685659531.912674) vcan1 104#761E2C18BD07C82D
(1685659531.923529) vcan1 104#622CA52A8EB4856F
(1685659531.934650) vcan1 104#1E41734F98C6A231
(1685659531.946204) vcan1 104#75BE720512DFC44B
(1685659531.956809) vcan1 104#1693D57F4D6E706C
(1685659531.967292) vcan1 104#D321C545B630E929
(1685659531.977711) vcan1 104#4F8C6F636E2B017E
(1685659531.988363) vcan1 104#FFE2B1247F002E2E
(1685659531.999243) vcan1 104#EB10E5556126330A
(1685659532.009838) vcan1 104#53CC5022F4DFB62D
(1685659532.020232) vcan1 104#62C63F72E3DFF817
(1685659532.030378) vcan1 104#EA4BD665CED6A61F
(1685659532.042439) vcan1 104#57FD33270D555873
(1685659532.052605) vcan1 104#11CD501E96705D6C
(1685659532.062952) vcan1 104#B5F7627B56DC9808
(1685659532.073384) vcan1 104#AD1149122B168F13
(1685659532.083545) vcan1 104#13E460360F3EEE3C
(1685659532.093704) vcan1 104#B9CA14033225D405
(1685659532.104130) vcan1 104#A704916E2F898708
(1685659532.114604) vcan1 104#44049951BE97666E
(1685659532.124697) vcan1 104#7CF7F77417265E17
(1685659532.136371) vcan1 104#74C84F18CB836758
(1685659532.148427) vcan1 104#86515F1573AB013D
(1685659532.160186) vcan1 104#4A8495067162446B
(1685659532.171492) vcan1 104#D5D134479D50E628
(1685659532.183610) vcan1 104#6642FB1837987439
(1685659532.195345) vcan1 104#8030DF40508ED17E
(1685659532.205727) vcan1 104#056F1B59D72D1368
(1685659532.217296) vcan1 104#5DE32972173C6C77
(1685659532.228267) vcan1 104#6D9E705413DB8C6D
(1685659532.239695) vcan1 104#6D1805001BB0B966
(1685659532.250942) vcan1 104#3EF11B0180FC6536
(1685659532.262026) vcan1 104#2AEEA723F8BB3004
(1685659532.272388) vcan1 104#B2213A3CD2F23812
(1685659532.282575) vcan1 104#2745B80CF625D30D
(1685659532.292944) vcan1 104#908A9F00A33CB001
(1685659532.304869) vcan1 104#0E4C31250453EF18
(1685659532.316500) vcan1 104#6FC0175A949D903A
(1685659532.327733) vcan1 104#77FEF055B944AD60
(1685659532.338502) vcan1 104#0500D5254CD0251D
(1685659532.348639) vcan1 104#579593096B42D03E
(1685659532.359356) vcan1 104#84689A56D7C5724A
(1685659532.371957) vcan1 104#BCD0A13D89D7B52F
(1685659532.382453) vcan1 104#AFF3853219B4CB2F
(1685659532.394551) vcan1 104#A01322271C92F606
(1685659532.406654) vcan1 104#2C8F581D0D2C2727
(1685659532.418811) vcan1 104#3742B06D6B80741E
(1685659532.430086) vcan1 104#8E288D5D62305811
(1685659532.440231) vcan1 104#633CA522404AC719
(1685659532.450324) vcan1 104#342391238A815D2F
(1685659532.461373) vcan1 104#37709A27C4AD3024
(1685659532.472394) vcan1 104#2DBE0D3145BCCB4C
(1685659532.483464) vcan1 104#C800203D9C7E250B
(1685659532.494306) vcan1 104#D9595C073FFF1013
(1685659532.504849) vcan1 104#56C3D26BDE59312D
(1685659532.515040) vcan1 104#8CCF3630AD586675
(1685659532.526264) vcan1 104#4A9C016C1038D106
(1685659532.537614) vcan1 104#841ED93F066DA329
(1685659532.548378) vcan1 104#990F873633125F72
(1685659532.559225) vcan1 104#1F216F593A23A95D
(1685659532.570101) vcan1 104#50A455794CB0C776
(1685659532.581101) vcan1 104#474FD00487E60567
(1685659532.592314) vcan1 104#B7303C15D5775D62
(1685659532.603285) vcan1 104#E9165E781A6DE137
(1685659532.613360) vcan1 104#16C2247C1D3AEF1B
(1685659532.623599) vcan1 104#A4EE3E674D32BF23
(1685659532.633779) vcan1 104#E1E71F40D1AC4C18
(1685659532.644133) vcan1 104#92EE8A70A9E83F7D
(1685659532.655564) vcan1 104#6E2B72236B48E777
(1685659532.666883) vcan1 104#E9E75010C4EE440F
(1685659532.677979) vcan1 104#49A2182575B78740
(1685659532.688430) vcan1 104#7147AB04933E1A11
(1685659532.698658) vcan1 104#85EF5847F5658444
(1685659532.709431) vcan1 104#99ABBD3A1EFFDF7D
(1685659532.719863) vcan1 104#2978E336B9CC2C14
(1685659532.729977) vcan1 104#5822895B791C3930
(1685659532.741161) vcan1 104#057DF40AA0715960
(1685659532.752151) vcan1 104#00033F17BCAD3020
(1685659532.762633) vcan1 104#75E9B642EA199D0F
(1685659532.772772) vcan1 104#D61A12588BABDB3E
(1685659532.783662) vcan1 104#07548C2B7A09513F
(1685659532.794094) vcan1 104#D8DD9A62E93BAC6B
(1685659532.804365) vcan1 104#4BB69D576ACC2553
(1685659532.815531) vcan1 104#9224EC68B9E10F7B
(1685659532.826576) vcan1 104#D5140D4B7B0C3D79
(1685659532.836749) vcan1 104#7DD0540A1FB72570
(1685659532.847019) vcan1 104#F0C3C439EE17000F
(1685659532.857295) vcan1 104#B2F53F0175B31D01
(1685659532.867513) vcan1 104#E47D84534CA1FD3B
(1685659532.877624) vcan1 104#94B2FD7E0DF6670A
(1685659532.887722) vcan1 104#056E2A50ECD4865A
(1685659532.898136) vcan1 104#8612A13A0AEB1E5B
(1685659532.908241) vcan1 104#8C46E03A8615E051
(1685659532.920590) vcan1 104#C6984F7B0230977D
(1685659532.931882) vcan1 104#702F7D619CB36153
(1685659532.943796) vcan1 104#8DDB723C7883090D
(1685659532.954047) vcan1 104#16BDB21266B90D1F
(1685659532.964139) vcan1 104#61BFB5786173506A
(1685659532.974230) vcan1 104#D0853372F3E3A161
(1685659532.984738) vcan1 104#1B556065A69A403D
(1685659532.995048) vcan1 104#6FF0DE5A9825B56F
(1685659533.005289) vcan1 104#C551662D5FB4A314
(1685659533.016211) vcan1 104#873DB57E7747A62E
(1685659533.026995) vcan1 104#D567C1156BBB3952
(1685659533.037486) vcan1 104#C3E8A36A691ABF14
(1685659533.047592) vcan1 104#78B1A15CC856CE3A
(1685659533.058372) vcan1 104#55EF456FFEC34217
(1685659533.068581) vcan1 104#D241ED15E235262A
(1685659533.078684) vcan1 104#84D9226998DA3C11
(1685659533.089269) vcan1 104#E465BD27F508A04A
(1685659533.099407) vcan1 104#348E9E6471413064
(1685659533.109604) vcan1 104#6D8CA9574A4B5177
(1685659533.119742) vcan1 104#D7FA3D03CE4B5F50
(1685659533.132054) vcan1 104#ACBEA161A8807175
(1685659533.142945) vcan1 104#C12F0132C7130247
(1685659533.153542) vcan1 104#4E1BB2323020E00C
(1685659533.164577) vcan1 104#5F39B736136D1860
(1685659533.174887) vcan1 104#90D48321E6766C35
(1685659533.185070) vcan1 104#8AB4BE0E653C4537
(1685659533.195725) vcan1 104#5132A6074E9D6279
(1685659533.206398) vcan1 104#CE56044CC9E34764
(1685659533.216741) vcan1 104#16F4303423464A3B
(1685659533.227146) vcan1 104#C7A78A7BE9351E4A
(1685659533.237389) vcan1 104#057C70654C81AD64
(1685659533.247480) vcan1 104#81105B5BE9E12D0D
(1685659533.258074) vcan1 104#418A4D2FB69EF93F
(1685659533.268324) vcan1 104#5B235E71AE16F706
(1685659533.278758) vcan1 104#00EA4A37321E9C74
(1685659533.289214) vcan1 104#7C625657ACA8EC18
(1685659533.299449) vcan1 104#DA9E0D6A3D925709
(1685659533.309946) vcan1 104#73BCEE5F28BABF1C
(1685659533.320174) vcan1 104#6EB23716D3F5A516
(1685659533.330784) vcan1 104#3B27D87CFE86BB37
(1685659533.340846) vcan1 104#B96C124CC6DB960B
(1685659533.350989) vcan1 104#63C3006F0B9FB853
(1685659533.362020) vcan1 104#1479F904311A053B
(1685659533.372228) vcan1 104#D48200382A6D2A39
(1685659533.382318) vcan1 104#54604F769C2A8B33
(1685659533.394038) vcan1 104#13A348035ADCBF5B
(1685659533.404626) vcan1 104#E8AB381895B3A35E
(1685659533.414786) vcan1 104#43BEED6829368647
(1685659533.425230) vcan1 104#4B529D1E9EE14B5A
(1685659533.435321) vcan1 104#D74C7D4E4B3CE855
(1685659533.445975) vcan1 104#D1FFE74E53AFD325
(1685659533.456218) vcan1 104#F8E4D46EAB9EF538
(1685659533.466346) vcan1 104#90412B2F6BA1C34E
(1685659533.476898) vcan1 104#D458B555FEF36245
(1685659533.487255) vcan1 104#3E9769650F808D52
(1685659533.497926) vcan1 104#FC7A1E7DF8037C31
(1685659533.508377) vcan1 104#D55B245E5F3E1F6C
(1685659533.518744) vcan1 104#03A33405E9D41D63
(1685659533.528862) vcan1 104#90582427D725353D
(1685659533.539185) vcan1 104#1442481CE5B8731D
(1685659533.549271) vcan1 104#7350C07027E5901F
(1685659533.559933) vcan1 104#3F9533795BFCF808
(1685659533.570349) vcan1 104#BC98347E82532162
(1685659533.580638) vcan1 104#84327F5007EBD11C
(1685659533.591572) vcan1 104#21356D3C5B7FFC1E
(1685659533.601745) vcan1 104#5327BA72F234550B
(1685659533.611866) vcan1 104#AE2ED0444B0C8F61
(1685659533.622173) vcan1 104#9DD34A443F70FB73
(1685659533.633214) vcan1 104#B6AD5230712C001A
(1685659533.643511) vcan1 104#3D645E39F544BC15
(1685659533.654345) vcan1 104#81AC8D6C3ADF7C36
(1685659533.664874) vcan1 104#ED4838475608B24A
(1685659533.674957) vcan1 104#991D9C22F0EB6C4C
(1685659533.685125) vcan1 104#40DDCF2D2A76C049
(1685659533.695483) vcan1 104#C711A209541F184A
(1685659533.706253) vcan1 104#0F2F34673B62627A
(1685659533.716559) vcan1 104#7B04A9694EC46760
(1685659533.726726) vcan1 104#965E5B03389DDD67
(1685659533.737016) vcan1 104#D01789421B91DA53
(1685659533.747337) vcan1 104#3F88AF04F14CF67E
(1685659533.757850) vcan1 104#7610D77292AF6977
(1685659533.768161) vcan1 104#E3814B0A253FA737
(1685659533.778673) vcan1 104#DDBBF8588155964E
(1685659533.788848) vcan1 104#64AFA22B94694B09
(1685659533.799218) vcan1 104#F2819668A1130165
(1685659533.809763) vcan1 104#89AE071F732E2455
(1685659533.820214) vcan1 104#DBF27D1B76F73F66
(1685659533.830359) vcan1 104#CA36D61F75101A3E
(1685659533.840505) vcan1 104#66E3AC320A14A64D
(1685659533.851146) vcan1 104#9F86DA072DF54E3C
(1685659533.861422) vcan1 104#5E33BE17AEB50E6F
(1685659533.872205) vcan1 104#6857B136D9376701
(1685659533.883012) vcan1 104#FC79764FFFB50C3A
(1685659533.893152) vcan1 104#11D54469CC91FF11
(1685659533.903585) vcan1 104#1A47E70D515DF46D
(1685659533.913831) vcan1 104#BEDEF5109057BE00
(1685659533.924111) vcan1 104#E30C5E65A160411B
(1685659533.934363) vcan1 104#B5966538C1C8563E
(1685659533.945200) vcan1 104#22B6D76919460864
(1685659533.955996) vcan1 104#5532A24715386E52
(1685659533.966496) vcan1 104#BB590949DEE0A966
(1685659533.977221) vcan1 104#88669227964C8764
(1685659533.987486) vcan1 104#54D8E94C529D6847
(1685659533.998317) vcan1 104#0B5DA122BABB967F
(1685659534.008950) vcan1 104#5CB10E15AAE37B2A
(1685659534.019777) vcan1 104#E7B0E53BBAE4CC2C
(1685659534.030338) vcan1 104#58998A1950089772
(1685659534.040950) vcan1 104#941C342E54130169
(1685659534.051505) vcan1 104#4FBEA32CA5F17817
(1685659534.062172) vcan1 104#21A5007B69058B3A
(1685659534.072710) vcan1 104#F64E6D05DF83F60B
(1685659534.083059) vcan1 104#F95C493BDA5BCB6A
(1685659534.093185) vcan1 104#80E43727AFF3AE73
(1685659534.103429) vcan1 104#9B242229A39A0F11
(1685659534.113758) vcan1 104#C839B757F056C470
(1685659534.124139) vcan1 104#B8D27D638393C020
(1685659534.134231) vcan1 104#CE376E574039100B
(1685659534.144650) vcan1 104#1AE0470522105824
(1685659534.155294) vcan1 104#93D67852253DE927
(1685659534.165442) vcan1 104#DCCBEE23EF878767
(1685659534.175534) vcan1 104#D0206552C37CD45F
(1685659534.186395) vcan1 104#AA6C541428BAEF6B
(1685659534.197242) vcan1 104#13856B523E898842
(1685659534.207759) vcan1 104#7DCDF05462430F7F
(1685659534.218387) vcan1 104#E37A015A9E72F14F
(1685659534.228834) vcan1 104#CB489A39DAC96E5F
(1685659534.239117) vcan1 104#7DF6E75BC5A5E374
(1685659534.249359) vcan1 104#B4253A4AFDDA1F03
(1685659534.260292) vcan1 104#749992684F4A5C73
(1685659534.270672) vcan1 104#A0752F143CD34940
(1685659534.281066) vcan1 104#3FA120645848AD77
(1685659534.291437) vcan1 104#C0660A610DD98E3B
(1685659534.302218) vcan1 104#9981BD02DA465266
(1685659534.312548) vcan1 104#2FE9E65F2C583655
(1685659534.322676) vcan1 104#FF833B0E0BB5D503
(1685659534.333268) vcan1 104#1BE0BD3CCFA4A060
(1685659534.343805) vcan1 104#CE31AA63C54C1251
(1685659534.354232) vcan1 104#F85E904CE2B61536
(1685659534.364420) vcan1 104#03D69A13752C8121
(1685659534.374700) vcan1 104#44FA2435E7509C6D
(1685659534.384842) vcan1 104#139F72711043BF6E
(1685659534.395020) vcan1 104#C11A0B4D90955A4D
(1685659534.406855) vcan1 104#D5E8A26375404517
(1685659534.417905) vcan1 104#8D707A504982354C
(1685659534.429014) vcan1 104#C48AA10A2EE6A964
(1685659534.439988) vcan1 104#85557F0C032CC26E
(1685659534.450969) vcan1 104#862E575C45BC896D
(1685659534.462013) vcan1 104#1005512A1FB0145F
(1685659534.472717) vcan1 104#1F03DC533FEE370A
(1685659534.482955) vcan1 104#4B084B341F871762
(1685659534.493210) vcan1 104#4AA30D0E67E80871
(1685659534.505307) vcan1 104#EE2BB84218D5B771
(1685659534.516111) vcan1 104#2C351B42E68A480F
(1685659534.526634) vcan1 104#FA8BCD27300BB655
(1685659534.537011) vcan1 104#5BB7C9303F86F25C
(1685659534.547256) vcan1 104#175C52436E563C22
(1685659534.557387) vcan1 104#4FC9B14BD8765D10
(1685659534.567956) vcan1 104#FEEB966F24B2542F
(1685659534.579373) vcan1 104#4DB7A2278C5C1140
(1685659534.589836) vcan1 104#6D348A7B11424432
(1685659534.600617) vcan1 104#BA42BB24F2890908
(1685659534.610979) vcan1 104#146E062140711201
(1685659534.621199) vcan1 104#384693752473574B
(1685659534.631360) vcan1 104#6021276057496F49
(1685659534.641638) vcan1 104#63618F55AB297214
(1685659534.652294) vcan1 104#76D0862BAD049D63
(1685659534.662652) vcan1 104#12127B0565FC3E6E
(1685659534.673062) vcan1 104#C5D954553F479647
(1685659534.683316) vcan1 104#4B87877DC065227D
(1685659534.693399) vcan1 104#6F524C1DA73E512E
(1685659534.703476) vcan1 104#FFEB145A86AE9E60
(1685659534.714479) vcan1 104#15958D504EB5C625
(1685659534.724662) vcan1 104#5E25FC7014812440
(1685659534.734806) vcan1 104#72671B55ABDC9E18
(1685659534.745062) vcan1 104#A0DD3500DF9BA550
(1685659534.755254) vcan1 104#BC1EE34A5A20F124
(1685659534.766292) vcan1 104#D125AF58D08CE96B
(1685659534.777100) vcan1 104#9A910326096C424E
(1685659534.787862) vcan1 104#F4FF4037FAB22A06
(1685659534.798561) vcan1 104#61B5B1175761D00C
(1685659534.809165) vcan1 104#A6DC9C1AD7853843
(1685659534.819350) vcan1 104#04666D70B8EE1720
(1685659534.829966) vcan1 104#3C827731C93FC245
(1685659534.840111) vcan1 104#F735AE678809FF2E
(1685659534.850290) vcan1 104#89A5E4426688FA04
(1685659534.860558) vcan1 104#2F48505D8891F91C
(1685659534.871424) vcan1 104#EC36996544DDDD2D
(1685659534.882025) vcan1 104#D646C0424A5C9556
(1685659534.892970) vcan1 104#585E026E48AEDB17
(1685659534.903383) vcan1 104#F538346FF83B386E
(1685659534.913874) vcan1 104#274A8168B157173A
(1685659534.924076) vcan1 104#525C2913F96F3041
(1685659534.934354) vcan1 104#81E40026EDED2C39
(1685659534.945171) vcan1 104#02DC720F75E4415D
(1685659534.956018) vcan1 104#E7A0573F63912427
(1685659534.966374) vcan1 104#CC45126A8D7DF459
(1685659534.976488) vcan1 104#3B175D6AD0AB7F5A
(1685659534.987086) vcan1 104#466C0C7A7799D41B
(1685659534.997834) vcan1 104#9AEB41203DA2BA61
(1685659535.007973) vcan1 104#FFA2D34A23912663
(1685659535.018431) vcan1 104#A42AB5662EEB2328
(1685659535.029016) vcan1 104#AC22200090614E4C
(1685659535.039499) vcan1 104#73C801568269E042
(1685659535.049611) vcan1 104#DBBDE322CB260444
(1685659535.059880) vcan1 104#CB17BC5AD0F61712
(1685659535.070010) vcan1 104#C4623C32F2613D43
(1685659535.080225) vcan1 104#824E2F4C16BF6545
(1685659535.090486) vcan1 104#EBD16D0403333072
(1685659535.101087) vcan1 104#03AD927EEEADE013
(1685659535.111206) vcan1 104#7917724FEB4DEA3D
(1685659535.121501) vcan1 104#513F053B455D8439
(1685659535.132349) vcan1 104#78CBDE178C566225
(1685659535.142634) vcan1 104#16090414BE37EB11
(1685659535.153470) vcan1 104#04F03641B0F44534
(1685659535.163635) vcan1 104#FCD9A57303930A0C
(1685659535.173811) vcan1 104#D3856C17A0045B5A
(1685659535.184005) vcan1 104#327E2E347FA88C17
(1685659535.194374) vcan1 104#3066A926A546300A
(1685659535.204600) vcan1 104#02126D5A0B248D49
(1685659535.214947) vcan1 104#706D344ECD292935
(1685659535.225400) vcan1 104#DC1AA55B34D07000
(1685659535.235740) vcan1 104#BF8B66785E69D427
(1685659535.246185) vcan1 104#4B8FD645AB5DD47C
(1685659535.256313) vcan1 104#619C041A4E3C6944
(1685659535.266478) vcan1 104#990BB510DAB37669
(1685659535.277331) vcan1 104#398A5302EA4ABA4B
(1685659535.287907) vcan1 104#2011FB22B255321A
(1685659535.298101) vcan1 104#77A11C71361AFF36
(1685659535.308355) vcan1 104#708D1D2C7B915332
(1685659535.318482) vcan1 104#E60E456B6C67C31F
(1685659535.328699) vcan1 104#7E245E3EB994B102
(1685659535.339066) vcan1 104#0C6C1E7AB0A28C72
(1685659535.349339) vcan1 104#393D3E1A3DD2C720
(1685659535.359897) vcan1 104#55E9BC7C3B4FAB74
(1685659535.370026) vcan1 104#48F6546AC656F14A
(1685659535.380312) vcan1 104#0879D4292411FA45
(1685659535.391125) vcan1 104#FA26624BC7043B22
(1685659535.401627) vcan1 104#827ACE6D45B63811
(1685659535.411719) vcan1 104#72620F1FE416D307
(1685659535.422569) vcan1 104#94F2A1550B6EC42F
(1685659535.433196) vcan1 104#BECA4971CD7CF557
(1685659535.443561) vcan1 104#F6B87E7BDEDB4414
(1685659535.454159) vcan1 104#7FD227726D5A9B6C
(1685659535.464605) vcan1 104#14F6434BF05F451E
(1685659535.474890) vcan1 104#E8EBEE1EFA048936
(1685659535.485166) vcan1 104#5CC7083E66104D5D
(1685659535.495404) vcan1 104#B4993A3969332738
(1685659535.505627) vcan1 104#17B3D94FEDD67853
(1685659535.515772) vcan1 104#A605EF586C9C964C
(1685659535.525992) vcan1 104#28262448EEFB4343
(1685659535.536221) vcan1 104#32F38717309FF871
(1685659535.546348) vcan1 104#130D3E092D1AEA62
(1685659535.557154) vcan1 104#F7A3331495870C77
(1685659535.567256) vcan1 104#72D022746A064333
(1685659535.577374) vcan1 104#799EDF7E06C3C449
(1685659535.587444) vcan1 104#7574076338692970
(1685659535.597629) vcan1 104#D43FBA216B2D865E
(1685659535.608270) vcan1 104#16456E045312E213
(1685659535.618384) vcan1 104#D887214B2B3BB24F
(1685659535.629005) vcan1 104#43722732C073106A
(1685659535.639411) vcan1 104#25403B06A0393070
(1685659535.650004) vcan1 104#27845D47D9D9753F
(1685659535.660110) vcan1 104#096D57283E373717
(1685659535.670589) vcan1 104#C6B0EE12AF724601
(1685659535.680700) vcan1 104#AAD3CD63EED6125B
(1685659535.691313) vcan1 104#9D6E8A44DDC6557B
(1685659535.702220) vcan1 104#1E760B4DB07BC84D
(1685659535.712879) vcan1 104#0AE13F5E161A3F61
(1685659535.723049) vcan1 104#4603D5447CB16252
(1685659535.733333) vcan1 104#80208214BFA1B443
(1685659535.744145) vcan1 104#8374271CF5948977
(1685659535.754413) vcan1 104#F70ADE3357B4E13D
(1685659535.765379) vcan1 104#61C20F560E504C38
(1685659535.775578) vcan1 104#AAC6C351394A3121
(1685659535.785918) vcan1 104#398BFE07EE38EB03
(1685659535.796045) vcan1 104#FABD410B5ECB390E
(1685659535.807527) vcan1 104#8E721B7421429F52
(1685659535.818734) vcan1 104#38A5AF4D97DF721C
(1685659535.831347) vcan1 104#5F79D669FE559E60
(1685659535.843993) vcan1 104#4652B91D094DA44D
(1685659535.856636) vcan1 104#ED2CB13BE3C04362
(1685659535.869192) vcan1 104#E613FA480BA3BC08
(1685659535.880302) vcan1 104#943C0C30F0F43927
(1685659535.892485) vcan1 104#21BDFB69DA3FE174
(1685659535.905098) vcan1 104#6DA69C79A1DD7D7E
(1685659535.916486) vcan1 104#99E19538F01AC415
(1685659535.927269) vcan1 104#9772077691EC736C
(1685659535.937393) vcan1 104#47CFA553F834174C
(1685659535.947748) vcan1 104#9F3CC024F1956925
(1685659535.959639) vcan1 104#317F486DD8C7BE2C
(1685659535.971321) vcan1 104#DFCE54292B3D8A78
(1685659535.982772) vcan1 104#3693F83A6D41701D
(1685659535.993966) vcan1 104#4C7F294B6E38A808
(1685659536.004378) vcan1 104#0421E339ABF8FF34
(1685659536.014544) vcan1 104#6D8E46694A739C57
(1685659536.024694) vcan1 104#B545A4025ABBF724
(1685659536.035794) vcan1 104#2E34E0399B599E4B
(1685659536.046821) vcan1 104#655EB42DC270EC69
(1685659536.059581) vcan1 104#8C4ED872871BB017
(1685659536.073218) vcan1 104#9CB0CD5EF9F4746C
(1685659536.083475) vcan1 104#28F92D1635926317
(1685659536.096084) vcan1 104#E90F3902BF6B350C
(1685659536.108686) vcan1 104#C67ED70330DFDE55
(1685659536.120259) vcan1 104#B7A04C5865BB9728
(1685659536.132866) vcan1 104#2175487BE91F9545
(1685659536.142964) vcan1 104#3D83565501449D24
(1685659536.153887) vcan1 104#145D1F3E74164F10
(1685659536.165172) vcan1 104#6E850D4261DC4809
(1685659536.177817) vcan1 104#E24EF71873A6F07B
(1685659536.188414) vcan1 104#0CD5483E4FDD3D02
(1685659536.200539) vcan1 104#BD198D53C11AED40
(1685659536.211507) vcan1 104#A9983527EB4D6D0D
(1685659536.221779) vcan1 104#5D748B0C0FF7E954
(1685659536.231897) vcan1 104#ADBE5977E9C2637F
(1685659536.242593) vcan1 104#96129A6C496F2756
(1685659536.253010) vcan1 104#E2B7D86BBE0BC802
(1685659536.263235) vcan1 104#7F018B6DCBC7116E
(1685659536.273416) vcan1 104#7E77FD0E45806271
(1685659536.283907) vcan1 104#FBA6F04335184A67
(1685659536.294575) vcan1 104#AB3BFA191C1C393F
(1685659536.304913) vcan1 104#1E38DF2CE8BE506F
(1685659536.315186) vcan1 104#1D60D6633395FE6A
(1685659536.325529) vcan1 104#5CD59F7F8CE5E325
(1685659536.336875) vcan1 104#947147743F249718
(1685659536.347248) vcan1 104#FF8BD421A0469032
(1685659536.357737) vcan1 104#8E01D51ABCA56175
(1685659536.367844) vcan1 104#62617D73389A0A42
(1685659536.378930) vcan1 104#A8F3CE02BFD50800
(1685659536.389442) vcan1 104#4791F41655B2287A
(1685659536.400323) vcan1 104#A8986C7FDDA38E03
(1685659536.410957) vcan1 104#9F2150508A50456B
(1685659536.421061) vcan1 104#9BAF56061E23DB3D
(1685659536.431175) vcan1 104#5518575919275415
(1685659536.441465) vcan1 104#63A33D2F50BF471D
(1685659536.453129) vcan1 104#4F3F9E7C0EDF3749
(1685659536.464124) vcan1 104#6CDB805C6D777D29
(1685659536.476300) vcan1 104#F79D88388A3B5740
(1685659536.487203) vcan1 104#A00C7C1453732838
(1685659536.497723) vcan1 104#16213B66347EC308
(1685659536.507876) vcan1 104#9297BF5015AD0F08
(1685659536.517990) vcan1 104#D5C4533B2199946B
(1685659536.528331) vcan1 104#D152717D3726D12E
(1685659536.538441) vcan1 104#59339F2D79464000
(1685659536.548565) vcan1 104#F6FBD92EA0C49344
(1685659536.559170) vcan1 104#CFF8687A9E94462E
(1685659536.570171) vcan1 104#7D6822486E1AB94A
(1685659536.580926) vcan1 104#28E58B191818794E
(1685659536.591356) vcan1 104#8C3D94087DFDE272
(1685659536.601456) vcan1 104#323FCD63EFE0D137
(1685659536.612453) vcan1 104#CDBC2A10817E6B60
(1685659536.623195) vcan1 104#FEBF09013998AB6C
(1685659536.633359) vcan1 104#EEF5E809F55D9239
(1685659536.643438) vcan1 104#C3D3022D8F02651E
(1685659536.654171) vcan1 104#48D1BA71D9F43D13
(1685659536.664401) vcan1 104#C3802827DB687A42
(1685659536.674939) vcan1 104#EEA14D1B98457C62
(1685659536.685387) vcan1 104#FC010F2EC0F4BE18
(1685659536.695541) vcan1 104#CF6B4D115535AE5B
(1685659536.706498) vcan1 104#393BFF18C5672740
(1685659536.716815) vcan1 104#F5F9412008346813
(1685659536.727001) vcan1 104#63FC6D6E72626468
(1685659536.737315) vcan1 104#764E215E8BE1F907
(1685659536.747767) vcan1 104#8A7ADD36028CB566
(1685659536.757982) vcan1 104#08DFDC7ABCB9AA1A
(1685659536.768375) vcan1 104#F26C871ED59B070B
(1685659536.779208) vcan1 104#3D38167BF02C911F
(1685659536.789756) vcan1 104#0F34B3772C2EFF04
(1685659536.799890) vcan1 104#E58A2359D207B624
(1685659536.810263) vcan1 104#BB3064232D5CDE4A
(1685659536.821006) vcan1 104#ACFCF3377EB18C4A
(1685659536.831426) vcan1 104#08C5580D9A9E4153
(1685659536.841611) vcan1 104#17F7082D04C7673B
(1685659536.851716) vcan1 104#5A93006CE662563E
(1685659536.862162) vcan1 104#59FC151794CEFF04
(1685659536.872430) vcan1 104#ACCA7D7E4EF65737
(1685659536.883360) vcan1 104#9C0268180FC7EB6C
(1685659536.893674) vcan1 104#C058BC1F13518976
(1685659536.904490) vcan1 104#9BA8E5744BD39956
(1685659536.915419) vcan1 104#15DD3E5DA387C26F
(1685659536.925729) vcan1 104#078D4471074AC67B
(1685659536.936550) vcan1 104#7923CA7A45C55A6C
(1685659536.946855) vcan1 104#F776571B88577D72
(1685659536.957328) vcan1 104#71F35971DC017B74
(1685659536.968110) vcan1 104#5A5F33172C24BE14
(1685659536.978631) vcan1 104#0A5E593F065C274F
(1685659536.989615) vcan1 104#AAD54A5F1223B24C
(1685659536.999839) vcan1 104#A1FA6822C1CC530C
(1685659537.010113) vcan1 104#17EA1908FB8D690E
(1685659537.020330) vcan1 104#A82FAA4A70E62F1F
(1685659537.030881) vcan1 104#8F5C691354FA2749
(1685659537.041075) vcan1 104#BFDC87562C5FD12B
(1685659537.051239) vcan1 104#63C113367F354476
(1685659537.061896) vcan1 104#3FB05A22FE69F92A
(1685659537.072229) vcan1 104#CA08DE4C548D997F
(1685659537.082358) vcan1 104#A2F1BB1AD295223E
(1685659537.092531) vcan1 104#5CD75F7B1B158615
(1685659537.103378) vcan1 104#175B7D2A534EB716
(1685659537.113982) vcan1 104#A36C0308884ED71B
(1685659537.124190) vcan1 104#3050320BFDCB361F
(1685659537.134513) vcan1 104#B47295303AAE8B4A
(1685659537.144906) vcan1 104#04285E6E5E48E00F
(1685659537.155603) vcan1 104#4CD13D17A522C710
(1685659537.165746) vcan1 104#2015341C63BB571F
(1685659537.176452) vcan1 104#A0B0301FC844DE66
(1685659537.187332) vcan1 104#D4A1873E300D9A32
(1685659537.197796) vcan1 104#1C3F0630937E0F15
(1685659537.208477) vcan1 104#5C6C6B5E7F001A66
(1685659537.218772) vcan1 104#12B4530B9B1CC600
(1685659537.229132) vcan1 104#7E6A1311DDBC3158
(1685659537.239369) vcan1 104#EFA95F00205CCF2B
(1685659537.250263) vcan1 104#AF5254164B81BF7B
(1685659537.260569) vcan1 104#3B715541C6ADD140
(1685659537.270774) vcan1 104#9FCF7612DEDD5849
(1685659537.281420) vcan1 104#4EFCA85CCF1FA91D
(1685659537.291607) vcan1 104#DBA98F68026F3E0D
(1685659537.302439) vcan1 104#09CE3468DFD1ED56
(1685659537.313058) vcan1 104#60B71E1D559F727F
(1685659537.323232) vcan1 104#84F4B46780CC5239
(1685659537.333403) vcan1 104#B95ACA1E25A5E506
(1685659537.344208) vcan1 104#481131208DFC515D
(1685659537.354716) vcan1 104#55B27F3964503750
(1685659537.364851) vcan1 104#207B6172B11EEB17
(1685659537.375260) vcan1 104#E4505136322FB57D
(1685659537.385564) vcan1 104#4C3BB11862BB6447
(1685659537.395700) vcan1 104#0FECE6553BE51019
(1685659537.405954) vcan1 104#82173473BE3E3B6C
(1685659537.416210) vcan1 104#8766D014BD888934
(1685659537.426705) vcan1 104#84EC0C2D26364727
(1685659537.437076) vcan1 104#9B66E27DD2E8B509
(1685659537.447450) vcan1 104#F555F04476107266
(1685659537.457877) vcan1 104#D457F416FE23252D
(1685659537.468109) vcan1 104#56E25F3D350F1334
(1685659537.479106) vcan1 104#53C3972CDAD61425
(1685659537.489367) vcan1 104#B5DB656D0C1E624B
(1685659537.500017) vcan1 104#FF7BFA2BFEEC960D
(1685659537.510265) vcan1 104#991AB428542E7A65
(1685659537.520603) vcan1 104#623DCE5DB995151B
(1685659537.531502) vcan1 104#054D657D468E1F14
(1685659537.541840) vcan1 104#ECC4CA1851881616
(1685659537.552302) vcan1 104#A849845BFBB0B16E
(1685659537.563277) vcan1 104#8D6D272F2A61B84E
(1685659537.573491) vcan1 104#BAEFEC5A14D4F743
(1685659537.583685) vcan1 104#E7E941033EDCF907
(1685659537.594302) vcan1 104#3A0A3F6B82502401
(1685659537.606148) vcan1 104#11C5AF112F602F30
(1685659537.616634) vcan1 104#F9609667E51CA428
(1685659537.626748) vcan1 104#2D84545D4F43F624
(1685659537.638105) vcan1 104#1A2CB75C8047EC09
(1685659537.648329) vcan1 104#291A0B4AD0071D4A
(1685659537.659087) vcan1 104#8D654E5529960576
(1685659537.670600) vcan1 104#CEF4B3572680027E
(1685659537.681014) vcan1 104#7DC47F5B30328235
(1685659537.692066) vcan1 104#E01518198311E558
(1685659537.702504) vcan1 104#77C0A149CCDAE231
(1685659537.712822) vcan1 104#D499FB6E1F0A2625
(1685659537.722957) vcan1 104#C78B94206107231E
(1685659537.733395) vcan1 104#4A6BDE73817B817B
(1685659537.744366) vcan1 104#75DB1A6231552077
(1685659537.755143) vcan1 104#C0577B03AFE5594D
(1685659537.765734) vcan1 104#B4A54478D11C2B15
(1685659537.775838) vcan1 104#DE45897DAD06DB5F
(1685659537.786088) vcan1 104#B639CF3D0BCADD5A
(1685659537.797101) vcan1 104#FC49D104D165861A
(1685659537.807842) vcan1 104#8C11CA642564DC4E
(1685659537.818256) vcan1 104#A16DA3641977183A
(1685659537.828341) vcan1 104#4EFAE1446F62573C
(1685659537.838501) vcan1 104#3FF71A38CCBE6120
(1685659537.849033) vcan1 104#9F94D9711F0D3351
(1685659537.859174) vcan1 104#4FD0467916557B3B
(1685659537.869252) vcan1 104#EBE71503236A4268
(1685659537.880188) vcan1 104#365FA160B373AA23
(1685659537.890946) vcan1 104#8571650680CA7F54
(1685659537.901396) vcan1 104#34EF2B1FFA4C8068
(1685659537.911520) vcan1 104#B11FA04BF446A722
(1685659537.922349) vcan1 104#AA32DA3565C5E443
(1685659537.933223) vcan1 104#C563D23788786333
(1685659537.943918) vcan1 104#12CCBF237C9DA175
(1685659537.954233) vcan1 104#9442410E0E169128
(1685659537.964358) vcan1 104#4D03281020540B73
(1685659537.975160) vcan1 104#347A6D77EE70CB74
(1685659537.985350) vcan1 104#39CB232D82744F3C
(1685659537.995647) vcan1 104#5DD3223178C23E65
(1685659538.005759) vcan1 104#4E33B15CFC67FC22
(1685659538.016638) vcan1 104#98CF71369D03F855
(1685659538.027450) vcan1 104#13BD775E83B78739
(1685659538.037926) vcan1 104#C16D3A3E491C193F
(1685659538.048036) vcan1 104#362B325D46DF9F44
(1685659538.058361) vcan1 104#C9E698136B1A5E7C
(1685659538.069133) vcan1 104#402C202D7A06395F
(1685659538.079341) vcan1 104#5F61051FEA5EFA62
(1685659538.090487) vcan1 104#E0CB1D2325C5D756
(1685659538.101036) vcan1 104#73D75D16F297DD46
(1685659538.111137) vcan1 104#A162794C071A9F24
(1685659538.121340) vcan1 104#01AE6E6FEE65A15C
(1685659538.132115) vcan1 104#276EAA173528DC66
(1685659538.142552) vcan1 104#DCD66C516039CE44
(1685659538.152714) vcan1 104#B79C2B2339AA8F02
(1685659538.163081) vcan1 104#D8FB0C2A06D0DC7F
(1685659538.173193) vcan1 104#35128C2570CB7E60
(1685659538.183618) vcan1 104#A3D3D45548CF0304
(1685659538.193762) vcan1 104#F482061A64410F14
(1685659538.204224) vcan1 104#91EB1C432AAE3877
(1685659538.214350) vcan1 104#AA20AF585AD2B556
(1685659538.225348) vcan1 104#95C89673EB4CCF05
(1685659538.236112) vcan1 104#D5D8EE35F5299C12
(1685659538.246597) vcan1 104#D5ABC968B5A40C59
(1685659538.256709) vcan1 104#1AEF73694883277F
(1685659538.267623) vcan1 104#A73CEA1FBB51ED35
(1685659538.278087) vcan1 104#4F9DC623A8EA580F
(1685659538.288223) vcan1 104#A9B78E12760B713B
(1685659538.299427) vcan1 104#DD123576858EFB63
(1685659538.309538) vcan1 104#D6443F0095AF6019
(1685659538.319663) vcan1 104#BE388B66AF404C2A
(1685659538.329770) vcan1 104#9B7F3D19F34A170C
(1685659538.340198) vcan1 104#1F0CCB0A3E53126F
(1685659538.350407) vcan1 104#3C1A1B10138FD124
(1685659538.360568) vcan1 104#A3942103CD053853
(1685659538.371001) vcan1 104#3E3D0A1C4DB5D05B
(1685659538.381142) vcan1 104#28D8ED29D305A10F
(1685659538.391412) vcan1 104#3802A061FDB0DC5F
(1685659538.401941) vcan1 104#C82F3D220EAE694A
(1685659538.412114) vcan1 104#B255E938E21EB10B
(1685659538.422605) vcan1 104#563191495992D358
(1685659538.432747) vcan1 104#9D709E41A6CE576D
(1685659538.443364) vcan1 104#027D2C6846282D54
(1685659538.453682) vcan1 104#1CDAC828DF8F615E
(1685659538.464490) vcan1 104#CBB62838F31E0829
(1685659538.474886) vcan1 104#743FC27789EFB31E
(1685659538.485010) vcan1 104#A25F54530FBFFF10
(1685659538.495366) vcan1 104#7D3ACB2AC16B1F5E
(1685659538.506142) vcan1 104#4E121200B954E63A
(1685659538.516409) vcan1 104#D5FAF002F1A63303
(1685659538.526483) vcan1 104#865A1E0E1338FB1E
(1685659538.537462) vcan1 104#3E5C045FAE320C38
(1685659538.547901) vcan1 104#E63D9C2E775EA440
(1685659538.558006) vcan1 104#ABE3E817AF6DD950
(1685659538.568198) vcan1 104#850C0E0B5D39D250
(1685659538.578525) vcan1 104#918C8A5CDB3D9F54
(1685659538.590643) vcan1 104#B7CBA5292FFD281E
(1685659538.602546) vcan1 104#810CF741B948D211
(1685659538.613409) vcan1 104#752556729EE6BF6A
(1685659538.624811) vcan1 104#98D8337041DC7E2A
(1685659538.635794) vcan1 104#9105C8130D18F667
(1685659538.646523) vcan1 104#CACB324933651C67
(1685659538.656664) vcan1 104#1CD7F5784706FE73
(1685659538.666759) vcan1 104#F4D03B456AE90779
(1685659538.677027) vcan1 104#005BE42EC9CB2C48
(1685659538.687679) vcan1 104#5B903B7C87B5023D
(1685659538.697755) vcan1 104#DC0328679AEC3F5B
(1685659538.707859) vcan1 104#35E80E75C341C415
(1685659538.718435) vcan1 104#114BE41BE1CBF70C
(1685659538.730038) vcan1 104#72AF9D669657F226
(1685659538.741020) vcan1 104#3E05CA5D033C2843
(1685659538.751685) vcan1 104#7195917BF5D06F07
(1685659538.762060) vcan1 104#32395161F3A1883D
(1685659538.772365) vcan1 104#AE194219A85EA753
(1685659538.782799) vcan1 104#9188482847F27509
(1685659538.793298) vcan1 104#E93A267E228E103C
(1685659538.803463) vcan1 104#540A6C71B3065947
(1685659538.813582) vcan1 104#55F32C2370E1616A
(1685659538.824191) vcan1 104#FB0C573B49C46868
(1685659538.834764) vcan1 104#DBCA6963FB673B6A
(1685659538.844994) vcan1 104#13909530365BA55F
(1685659538.855756) vcan1 104#821D3E27EF93BD17
(1685659538.866423) vcan1 104#D047E53AB8054D1C
(1685659538.876593) vcan1 104#B2D5812DE192C956
(1685659538.886706) vcan1 104#99D1442924851F14
(1685659538.896918) vcan1 104#77EABB7DD7D60E07
(1685659538.907229) vcan1 104#28C14757E97F4D79
(1685659538.917355) vcan1 104#CDA77E0E5AFA9838
(1685659538.927937) vcan1 104#DC21D6367BC1C027
(1685659538.938416) vcan1 104#0259400C6DAA1E5F
(1685659538.948523) vcan1 104#C2B33631EB93660A
(1685659538.959579) vcan1 104#8F382F1B16BEA222
(1685659538.970359) vcan1 104#9F9ABF51E42B5C3E
(1685659538.980833) vcan1 104#879F040D9AA7160D
(1685659538.990953) vcan1 104#2DF0C426626A6E70
(1685659539.001182) vcan1 104#950F527740805A57
(1685659539.011663) vcan1 104#98C51350182D901E
(1685659539.022088) vcan1 104#3014186F690DF90A
(1685659539.032194) vcan1 104#D032DD3AE2E9991C
(1685659539.043123) vcan1 104#4AA0C26169042264
(1685659539.053843) vcan1 104#076FB930C28A7E5F
(1685659539.064454) vcan1 104#40DB306B2F300108
(1685659539.074579) vcan1 104#AB0ACC580D83AF79
(1685659539.084675) vcan1 104#892A9A40872CA20F
(1685659539.094776) vcan1 104#894470218C83DA4C
(1685659539.106061) vcan1 104#F4D6C06E4BF8A652
(1685659539.116159) vcan1 104#77174157830FF009
(1685659539.126275) vcan1 104#62B6497516B20029
(1685659539.137671) vcan1 104#673B4C48E9554E02
(1685659539.147830) vcan1 104#B0591736942B116F
(1685659539.157924) vcan1 104#4BC0BC724669692D
(1685659539.168522) vcan1 104#D5AB6B46E385D042
(1685659539.179093) vcan1 104#5E96F94B05C08335
(1685659539.189644) vcan1 104#4C93C94D2EC9D606
(1685659539.199962) vcan1 104#E7A91D5297338C2F
(1685659539.210137) vcan1 104#97CDF86AEE18D702
(1685659539.220217) vcan1 104#59BE0A0FD7A82956
(1685659539.231014) vcan1 104#1D49D80A04C9D667
(1685659539.241516) vcan1 104#E52BD94FA773724B
(1685659539.251640) vcan1 104#8BF578776E704971
(1685659539.262000) vcan1 104#33F74C187FCC3966
(1685659539.272161) vcan1 104#B968F043AA0E8E6F
(1685659539.282286) vcan1 104#02DC29701B1F3A39
(1685659539.292439) vcan1 104#C1C08E1869177638
(1685659539.303219) vcan1 104#0475883B711AA64E
(1685659539.313572) vcan1 104#FD4287274F35452E
(1685659539.324338) vcan1 104#B7830F7CD2EEF26D
(1685659539.335139) vcan1 104#33BB1571151A0948
(1685659539.345263) vcan1 104#D7AE76237F4EDF3E
(1685659539.355383) vcan1 104#43E3DF4EBF589475
(1685659539.365523) vcan1 104#16826B6EDAB0D839
(1685659539.376181) vcan1 104#AD716B786F40767D
(1685659539.386880) vcan1 104#B2590210CBBA4303
(1685659539.397352) vcan1 104#73094D659785DB5F
(1685659539.407878) vcan1 104#722EB64EFEFEC55C
(1685659539.418389) vcan1 104#05F62451A5250367
(1685659539.428578) vcan1 104#7DCBFF42BE5E1515
(1685659539.439466) vcan1 104#4F3491567FA72933
(1685659539.450002) vcan1 104#DA7D4F4E10F51F6F
(1685659539.460210) vcan1 104#E8BE9F6BDEF2D709
(1685659539.470362) vcan1 104#820FC63DE6012713
(1685659539.480523) vcan1 104#2E281D383993D539
(1685659539.490751) vcan1 104#B8F0190161E33229
(1685659539.501185) vcan1 104#4FADDE01909F9024
(1685659539.511446) vcan1 104#E03112689290BE50
(1685659539.521574) vcan1 104#4FF8241AF7B37D56
(1685659539.531884) vcan1 104#6D41970AFC699012
(1685659539.542133) vcan1 104#66F4F3531F9B991A
(1685659539.552278) vcan1 104#C724D415DAFD4039
(1685659539.562524) vcan1 104#B620757A39538A64
(1685659539.572905) vcan1 104#D8FC0616BB169A4B
(1685659539.583857) vcan1 104#DE788D4B56C80659
(1685659539.594421) vcan1 104#7975AF602EAD1E22
(1685659539.604896) vcan1 104#D56F300C53F3FE2E
(1685659539.615095) vcan1 104#3EA23E11BE2ED077
(1685659539.625316) vcan1 104#32E6D638C0B1044F
(1685659539.636228) vcan1 104#A430F70A600EF470
(1685659539.646866) vcan1 104#FA44DA085C21110C
(1685659539.657178) vcan1 104#C1F1261A49F2B80A
(1685659539.668001) vcan1 104#ECC0A130A1233902
(1685659539.678211) vcan1 104#DB82775B3BB9C64A
(1685659539.688343) vcan1 104#98D7B65848C40E66
(1685659539.698489) vcan1 104#3823575DFFCBAA2C
(1685659539.709403) vcan1 104#675FA800FF472B73
(1685659539.721012) vcan1 104#D9C9EB651D801D7B
(1685659539.732386) vcan1 104#399BB557B1C6F27B
(1685659539.742925) vcan1 104#D896B74617144323
(1685659539.753846) vcan1 104#078FF954520C6727
(1685659539.764478) vcan1 104#45C16145DDFE2961
(1685659539.774663) vcan1 104#A5FF65568463A056
(1685659539.785807) vcan1 104#9B2DFA58D7E53C0F
(1685659539.797837) vcan1 104#4415A5253F5EF163
(1685659539.808992) vcan1 104#37F430003E5A7F2E
(1685659539.821615) vcan1 104#9B7F0270F8E5571A
(1685659539.832199) vcan1 104#874C38398840A420
(1685659539.844041) vcan1 104#9A09911C63CFAF14
(1685659539.855949) vcan1 104#C3F96A6B32E14775
(1685659539.866718) vcan1 104#AB93BE7AFB1CC248
(1685659539.878833) vcan1 104#31ADF22113F3667B
(1685659539.890207) vcan1 104#FB64ED3B0A77DE07
(1685659539.902813) vcan1 104#307384763400A313
(1685659539.915428) vcan1 104#BC3DD103090A3C3D
(1685659539.928079) vcan1 104#4B14E636C3CCCA58
(1685659539.940471) vcan1 104#5B16A36491D5477C
(1685659539.951697) vcan1 104#A0CBF4390016093B
(1685659539.961925) vcan1 104#1539E8523BF9EE12
(1685659539.972072) vcan1 104#D8FB454A594E8D78
(1685659539.982829) vcan1 104#7A57E0760FF0764A
(1685659539.993275) vcan1 104#98A80C2716D7E266
(1685659540.003543) vcan1 104#08D6CE641FF54460
(1685659540.014151) vcan1 104#9E178707A2DF5F01
(1685659540.024390) vcan1 104#82C4F4746111F272
(1685659540.034497) vcan1 104#D4C0A7762E58B36F
(1685659540.044680) vcan1 104#5D2EB43B066E9A18
(1685659540.054791) vcan1 104#414B1A6B5893A177
(1685659540.065055) vcan1 104#10E5782071BE9E61
(1685659540.075950) vcan1 104#8C93440BCC224A24
(1685659540.086443) vcan1 104#7AC8DA1ED7A72A42
(1685659540.096584) vcan1 104#90EF147DD5DE7D03
(1685659540.106814) vcan1 104#687D723E30BB0937
(1685659540.116975) vcan1 104#D6F4863E7DB65A11
(1685659540.127312) vcan1 104#6CB4F849AEF0CC08
(1685659540.137776) vcan1 104#D704E809E60BD940
(1685659540.147899) vcan1 104#BDE043536FADF430
(1685659540.158464) vcan1 104#FCE2BB27C5B61238
(1685659540.168678) vcan1 104#8EA239119AFA422F
(1685659540.179186) vcan1 104#6796723911672E06
(1685659540.189368) vcan1 104#FC0B35223C571A30
(1685659540.200321) vcan1 104#3FBFE175593AE95D
(1685659540.211383) vcan1 104#42C5B448800AFC60
(1685659540.223270) vcan1 104#B1CD8A5552AA2D69
(1685659540.233827) vcan1 104#F1C89A423D61CF60
(1685659540.244290) vcan1 104#1FCD770D6C917561
(1685659540.255161) vcan1 104#1409FA22AFBC8C0A
(1685659540.265842) vcan1 104#4170F3647D866C61
(1685659540.276109) vcan1 104#DF77964117657A23
(1685659540.286257) vcan1 104#FA3CC7724B2C8F0B
(1685659540.297481) vcan1 104#C555472CD141AF7C
(1685659540.309492) vcan1 104#3238684C83368B7F
(1685659540.320407) vcan1 104#40EFA32D2E1B2474
(1685659540.332437) vcan1 104#48ED9D37CF91DD3E
(1685659540.344516) vcan1 104#C9156723B0831071
(1685659540.356180) vcan1 104#E0F80B45C5219C45
(1685659540.367333) vcan1 104#ECDA2A211FB8ED3A
(1685659540.378005) vcan1 104#1E5C85232EA0DF69
(1685659540.389453) vcan1 104#9FC2E91BCF291079
(1685659540.399547) vcan1 104#804A0D53908B845E
(1685659540.409712) vcan1 104#0C8BDF599F178560
(1685659540.419805) vcan1 104#FC1CFA3F2094D97C
(1685659540.430694) vcan1 104#4ED4116B3E8DED24
(1685659540.441998) vcan1 104#9D1A465E2E4CA82C
(1685659540.453026) vcan1 104#55F2674898570D51
(1685659540.463969) vcan1 104#797837381B48AF74
(1685659540.474464) vcan1 104#6999BC4DABB09F04
(1685659540.484591) vcan1 104#9E7E3A74AA88607B
(1685659540.495293) vcan1 104#DACBC378E66BD82B
(1685659540.505711) vcan1 104#791A3E3AA3E12A1C
(1685659540.516013) vcan1 104#96EFE81C59134A7F
(1685659540.526391) vcan1 104#6803C76182CA133E
(1685659540.536686) vcan1 104#78CB373A865F4C05
(1685659540.546812) vcan1 104#B06AF327178E2156
(1685659540.557353) vcan1 104#55895C7E31B5007B
(1685659540.568579) vcan1 104#A719A63461143C58
(1685659540.580581) vcan1 104#D0CC855BA436A074
(1685659540.591521) vcan1 104#81A815551FA19746
(1685659540.602597) vcan1 104#E2C38D191FC35B33
(1685659540.612760) vcan1 104#4DED3F7337B6F561
(1685659540.622874) vcan1 104#B71A6904C665772B
(1685659540.633287) vcan1 104#52FEA45620B42552
(1685659540.643632) vcan1 104#72161730F07CDF4A
(1685659540.655493) vcan1 104#CA3C864D4CE2DA28
(1685659540.667684) vcan1 104#D7E8B7764357C407
(1685659540.678131) vcan1 104#EFC305456DD8A013
(1685659540.689095) vcan1 104#9C6A0E0757C7CC26
(1685659540.699364) vcan1 104#F0A2B45114364641
(1685659540.710902) vcan1 104#DD26192CA00DA879
(1685659540.722097) vcan1 104#2BC4671732B0752A
(1685659540.733078) vcan1 104#D1C2A874D3DD0D4C
(1685659540.744043) vcan1 104#93C4B102A28F2E50
(1685659540.754761) vcan1 104#7714AE40146DC757
(1685659540.764918) vcan1 104#C130C61659D83B5A
(1685659540.775484) vcan1 104#3330230B0E1E060A
(1685659540.785967) vcan1 104#908E313CEA4A8C0F
(1685659540.796640) vcan1 104#D4837D35E38CD612
(1685659540.808500) vcan1 104#0BFFB161469A9465
(1685659540.819697) vcan1 104#D309B65DD53B382F
(1685659540.831339) vcan1 104#927C6F0EAAF26D54
(1685659540.843129) vcan1 104#1993FC3681407553
(1685659540.853464) vcan1 104#18CB0E68B5FD0A3E
(1685659540.864247) vcan1 104#D807427A086EC339
(1685659540.874893) vcan1 104#CA33517FB52E5B26
(1685659540.885333) vcan1 104#A87B6B33F5F7B816
(1685659540.895677) vcan1 104#E7DED0507A3E1428
(1685659540.907308) vcan1 104#C8D5C6627AA38253
(1685659540.917557) vcan1 104#1CCE42783FEA7423
(1685659540.928186) vcan1 104#8F104A2BDDFE080F
(1685659540.939654) vcan1 104#98C2B07DC2406D36
(1685659540.950289) vcan1 104#EB1C0F192951E239
(1685659540.961347) vcan1 104#AD8BF945BFA08C4E
(1685659540.972487) vcan1 104#0CDEB84CB88AAB27
(1685659540.983671) vcan1 104#063B2134DFE76E2A
(1685659540.994230) vcan1 104#8DC6E35698B79042
(1685659541.004344) vcan1 104#8ADADC7EA659E00D
(1685659541.014977) vcan1 104#1AF80516A2A5EB66
(1685659541.025186) vcan1 104#5C57EB4BF2FF4710
(1685659541.035281) vcan1 104#AA13AF20268B3C4B
(1685659541.047201) vcan1 104#A82EA336528F1A54
(1685659541.057321) vcan1 104#1B83F5618F0D7407
(1685659541.067444) vcan1 104#CCCD2E7CE458BC44
(1685659541.078061) vcan1 104#0AB1F65AE89B7174
(1685659541.088167) vcan1 104#2343316899C14006
(1685659541.098658) vcan1 104#C59A7A03BC05E265
(1685659541.108843) vcan1 104#5B02AE3CB0B7891C
(1685659541.119418) vcan1 104#E556C41F088EA702
(1685659541.130610) vcan1 104#7058166BF1347D6C
(1685659541.142290) vcan1 104#C018532A7693371F
(1685659541.153297) vcan1 104#D01CEC164EDF3601
(1685659541.163996) vcan1 104#0E4BC8615AF7C815
(1685659541.175048) vcan1 104#F438170F2843CE77
(1685659541.185207) vcan1 104#FC9CB47C5090025B
(1685659541.195314) vcan1 104#1B431608A6B0631D
(1685659541.205431) vcan1 104#761B3F26C371B93E
(1685659541.216307) vcan1 104#F93F7E71929E3408
(1685659541.227163) vcan1 104#527F2D46C50DAD6D
(1685659541.237831) vcan1 104#76F7F04C5C302421
(1685659541.248271) vcan1 104#AEA91E62993A2235
(1685659541.258457) vcan1 104#F5F1642773449965
(1685659541.269837) vcan1 104#5540041B51F41264
(1685659541.281049) vcan1 104#24FC22023A97C83A
(1685659541.292906) vcan1 104#5982BA669454396D
(1685659541.304639) vcan1 104#2BCC45271A9B0D11
(1685659541.315526) vcan1 104#0AE8700CFCE8313E
(1685659541.325771) vcan1 104#687A44121833396E
(1685659541.336616) vcan1 104#56E0FA535CB35B21
(1685659541.346745) vcan1 104#41760766537DAF50
(1685659541.356842) vcan1 104#AD435E7C5CB91D6E
(1685659541.366924) vcan1 104#F92D136E235F9D22
(1685659541.377164) vcan1 104#1F2BD72CF26D915F
(1685659541.389279) vcan1 104#B5FDD12A71AA0473
(1685659541.400642) vcan1 104#B87B3E4D2BF5C277
(1685659541.413240) vcan1 104#CEDA281466255D2F
(1685659541.425847) vcan1 104#C52FE52CC3CC8D3B
(1685659541.436191) vcan1 104#D969F6141A70E947
(1685659541.446700) vcan1 104#14C1A01FFD651917
(1685659541.459298) vcan1 104#5507B2026E435B06
(1685659541.471892) vcan1 104#91BA520480D3F729
(1685659541.484485) vcan1 104#88DE68179BA2C310
(1685659541.497081) vcan1 104#7CBC2968F058AD29
(1685659541.509677) vcan1 104#B4D5FC7ED39C243C
(1685659541.522275) vcan1 104#4C0C094BF54B0465
(1685659541.532496) vcan1 104#261AD40CF94F6747
(1685659541.543536) vcan1 104#510522531F48E77A
(1685659541.554145) vcan1 104#1DAF046A7030F97F
(1685659541.564897) vcan1 104#12B6785AD2ACD614
(1685659541.575723) vcan1 104#E1DAFD72CA31B727
(1685659541.586520) vcan1 104#FEA1990CAFB52607
(1685659541.596733) vcan1 104#30571457C3D17E39
(1685659541.607763) vcan1 104#7382B44209C10A6C
(1685659541.618450) vcan1 104#DD41680187435562
(1685659541.629776) vcan1 104#0727240332491A04
(1685659541.640382) vcan1 104#F586B06898E17607
(1685659541.651127) vcan1 104#B31C122E7D651900
(1685659541.661548) vcan1 104#34843A182FD93B16
(1685659541.671865) vcan1 104#6DBEC629E8593717
(1685659541.682578) vcan1 104#02766052BACACF74
(1685659541.693621) vcan1 104#DDA53B7C2890345F
(1685659541.704756) vcan1 104#B31A373C2EAB5D4F
(1685659541.715927) vcan1 104#48D81B5AD0C93B26
(1685659541.726027) vcan1 104#9EDB564F5A8E9434
(1685659541.736132) vcan1 104#A376123B7FB65442
(1685659541.746585) vcan1 104#24C04B5CA118AC47
(1685659541.757955) vcan1 104#2F6C7B4954176033
(1685659541.768895) vcan1 104#64EA2A01A2EE2F0C
(1685659541.780825) vcan1 104#5DD86A1F412C9302
(1685659541.792459) vcan1 104#2932856E64FF8E22
(1685659541.802880) vcan1 104#7475AD061FB93557
(1685659541.814193) vcan1 104#FDE0052A2792BF34
(1685659541.824363) vcan1 104#9C1E4F5731654042
(1685659541.834503) vcan1 104#566BFB4A0ADD1501
(1685659541.844881) vcan1 104#19BF775959E15B1D
(1685659541.855070) vcan1 104#C4A7E575F664B355
(1685659541.867463) vcan1 104#8171907C77C21C32
(1685659541.877674) vcan1 104#24101125C949AC56
(1685659541.888205) vcan1 104#488C5858C2EB6774
(1685659541.900185) vcan1 104#23D8400BEB026B13
(1685659541.910302) vcan1 104#41A2BC3647988C67
(1685659541.920485) vcan1 104#8C1B175B700E3800
(1685659541.930613) vcan1 104#9BAFEC1AF005425C
(1685659541.940818) vcan1 104#12FD670CF987573A
(1685659541.951987) vcan1 104#3132D55E3C2FED7A
(1685659541.962840) vcan1 104#5D87E65CA5A78265
(1685659541.973683) vcan1 104#5BE822525A68EC06
(1685659541.983817) vcan1 104#CC39421AF7067229
(1685659541.994218) vcan1 104#8BCD2C4923A53D65
(1685659542.004399) vcan1 104#01E4872AA48CA422
(1685659542.014556) vcan1 104#7C869902C58B6D20
(1685659542.024949) vcan1 104#9AF15778FDF7297F
(1685659542.035455) vcan1 104#3D4E8A52BE01691D
(1685659542.045878) vcan1 104#C741D65585DAE22A
(1685659542.056164) vcan1 104#80EDD011EA191761
(1685659542.066974) vcan1 104#70DD4D3EC28F8D48
(1685659542.078440) vcan1 104#32B2A348FCF86419
(1685659542.089783) vcan1 104#329EC548CD619063
(1685659542.100785) vcan1 104#ECFEA675459B2D55
(1685659542.111535) vcan1 104#C6E9E71D1D317C54
(1685659542.122932) vcan1 104#81CA1A502471CE7A
(1685659542.134170) vcan1 104#C3D8FE39DCB23D22
(1685659542.144360) vcan1 104#7ED9BA018F124154
(1685659542.154923) vcan1 104#D3B9AF4B0AA7E74A
(1685659542.165490) vcan1 104#B2B77E39D59D3776
(1685659542.175603) vcan1 104#AE338C6D2E3E183C
(1685659542.185863) vcan1 104#9A29A5164925E465
(1685659542.196085) vcan1 104#2C36423BD7772F69
(1685659542.206811) vcan1 104#07274D03F3771811
(1685659542.218137) vcan1 104#5C52121488141E15
(1685659542.230698) vcan1 104#DD912F72CC2F6052
(1685659542.243129) vcan1 104#4AA4AB5D0F44D33A
(1685659542.255397) vcan1 104#C828C56B7C427126
(1685659542.267256) vcan1 104#DDA5631EB4276C61
(1685659542.279335) vcan1 104#C1DD9E7BA38F4B3C
(1685659542.291199) vcan1 104#D258E83542A8B94B
(1685659542.303014) vcan1 104#C7001A379531E76F
(1685659542.314243) vcan1 104#1E5BF76D46DAD438
(1685659542.325049) vcan1 104#24442844F214A739
(1685659542.335306) vcan1 104#5081BC03D7FBA67D
(1685659542.345454) vcan1 104#C7B2DE2FFEB44871
(1685659542.355671) vcan1 104#053ABF3961DC8346
(1685659542.365770) vcan1 104#47DA2C5731700175
(1685659542.375864) vcan1 104#3954B32F4F017A5A
(1685659542.385921) vcan1 104#24E8190695A6C543
(1685659542.396163) vcan1 104#D715986F027A4978
(1685659542.406441) vcan1 104#62D6251621BA434D
(1685659542.419059) vcan1 104#11BE1C332AFFEA01
(1685659542.431656) vcan1 104#9DFCB473EE638051
(1685659542.442660) vcan1 104#DF2657635FDA536F
(1685659542.453531) vcan1 104#92F3CB0DB17F3F19
(1685659542.464195) vcan1 104#A1820D3B59F4E544
(1685659542.474523) vcan1 104#46B12609C0DD0429
(1685659542.485852) vcan1 104#9FCEBA7D6AF54E4D
(1685659542.497469) vcan1 104#B2F2AB62EF4F7701
(1685659542.507644) vcan1 104#41F1F54A79A58A12
(1685659542.517778) vcan1 104#EE04C072472BB504
(1685659542.528275) vcan1 104#DA810E5935DFEC49
(1685659542.538858) vcan1 104#789BB67913D6C108
(1685659542.549418) vcan1 104#84E066249D83D07F
(1685659542.559987) vcan1 104#A97C874C5BF6FE13
(1685659542.570192) vcan1 104#9FFD19780B53AD62
(1685659542.580363) vcan1 104#7CB04261B0BB362B
(1685659542.591209) vcan1 104#355298641AADF754
(1685659542.601719) vcan1 104#9F1FB77C1479EF47
(1685659542.611851) vcan1 104#79874B443113830A
(1685659542.622434) vcan1 104#C5F82E611A0A597F
(1685659542.633378) vcan1 104#8A07694F0BAA556A
(1685659542.645260) vcan1 104#DAE75D282AD6234D
(1685659542.656183) vcan1 104#769FA4378CDA090B
(1685659542.668413) vcan1 104#19269B4EB7909A02
(1685659542.679286) vcan1 104#0580941D072B5B41
(1685659542.689779) vcan1 104#FEBB4F07E001A376
(1685659542.700352) vcan1 104#3D0A480B77570601
(1685659542.711193) vcan1 104#F3D7647FC1EAAE2F
(1685659542.721669) vcan1 104#14DBD6009C54EC4B
(1685659542.731939) vcan1 104#1DE1AD43B3D8F078
(1685659542.742425) vcan1 104#A7A7992E9991F024
(1685659542.752765) vcan1 104#63942724DDF93113
(1685659542.763439) vcan1 104#B33EE87902B4DE20
(1685659542.773862) vcan1 104#F172215B2CC6333E
(1685659542.783976) vcan1 104#33C7612BB76B503C
(1685659542.794710) vcan1 104#47D08C3DBECECA7A
(1685659542.805645) vcan1 104#C215A62621B8EA65
(1685659542.815772) vcan1 104#E8A4EE4738B54A5E
(1685659542.825996) vcan1 104#AE92F47001CB8916
(1685659542.837366) vcan1 104#F045E560B312890E
(1685659542.847747) vcan1 104#09F6E457EE013568
(1685659542.859951) vcan1 104#93142C0546002D63
(1685659542.871984) vcan1 104#65593B6987EC9004
(1685659542.884231) vcan1 104#07EBDB127934126A
(1685659542.895608) vcan1 104#23417D5024CC8956
(1685659542.906717) vcan1 104#2C0D0363CBE8167F
(1685659542.917160) vcan1 104#BE5D7A7B90A12A07
(1685659542.927490) vcan1 104#A8E24812719C6275
(1685659542.940130) vcan1 104#9255092899556A6D
(1685659542.950676) vcan1 104#9E629633C61C6B53
(1685659542.961907) vcan1 104#50C1BA29E5322371
(1685659542.972378) vcan1 104#84EB354E13D76050
(1685659542.984985) vcan1 104#06EB0D576C902416
(1685659542.995108) vcan1 104#4B8CAB2EB47D0248
(1685659543.005626) vcan1 104#6D5BAE2C3BD2900F
(1685659543.015737) vcan1 104#68908B5676519304
(1685659543.026470) vcan1 104#2AD4C577FBA4B75B
(1685659543.036691) vcan1 104#BC51C0678F2D0161
(1685659543.047403) vcan1 104#82914860C43C9C7A
(1685659543.057798) vcan1 104#0962134BA6D2C530
(1685659543.067988) vcan1 104#E8082651356F162E
(1685659543.079068) vcan1 104#71BBDC2FA666A04C
(1685659543.089656) vcan1 104#C5104135199E2542
(1685659543.099954) vcan1 104#1803034258664A5D
(1685659543.112270) vcan1 104#B2F38F2FB6659975
(1685659543.122654) vcan1 104#1E83B53003B54A59
(1685659543.132961) vcan1 104#9B98BC66A26EEB7E
(1685659543.143916) vcan1 104#168CAB29A183CA3D
(1685659543.155092) vcan1 104#0EFF0F1561185758
(1685659543.165410) vcan1 104#5601CD057B5ABE41
(1685659543.175766) vcan1 104#9DEAE767BE91585C
(1685659543.186235) vcan1 104#F2AB5146C7BEAD5F
(1685659543.196367) vcan1 104#B9361038AEFD112E
(1685659543.206546) vcan1 104#56ECAE403CC85818
(1685659543.216700) vcan1 104#723AAE285F4EC20B
(1685659543.226812) vcan1 104#E29A1E495B43D479
(1685659543.237233) vcan1 104#95BDD8395356FB78
(1685659543.247366) vcan1 104#01AA74465ACE196F
(1685659543.258528) vcan1 104#6CF4203B19AD7708
(1685659543.269737) vcan1 104#B234644C1EE8B06A
(1685659543.280233) vcan1 104#CF12117ED0B7197D
(1685659543.291523) vcan1 104#219DFB436AABCD64
(1685659543.301642) vcan1 104#7226057C3729A76D
(1685659543.311736) vcan1 104#0C2F982280251511
(1685659543.321831) vcan1 104#9941FE4562306528
(1685659543.332749) vcan1 104#FC7FD352362CE62D
(1685659543.344215) vcan1 104#20C2BD04EE2B2519
(1685659543.356829) vcan1 104#FDEA930DD9F8CD3C
(1685659543.367042) vcan1 104#9C29374753D7424E
(1685659543.379271) vcan1 104#15C126550F64E56F
(1685659543.389947) vcan1 104#B325055AF75B451E
(1685659543.401429) vcan1 104#6AA7B96948E3DD13
(1685659543.412276) vcan1 104#4AB240176B512E30
(1685659543.422714) vcan1 104#A2B1F702B6A66152
(1685659543.432852) vcan1 104#85FEA53855E65B4F
(1685659543.443740) vcan1 104#D58E123D5411B736
(1685659543.454326) vcan1 104#259E754CF62B0E01
(1685659543.464577) vcan1 104#BFBC841B98C47A48
(1685659543.474732) vcan1 104#2E55B56ECBEB1C3E
(1685659543.485883) vcan1 104#18EA8F59C796B334
(1685659543.496334) vcan1 104#2D1C8266146A632C
(1685659543.508603) vcan1 104#FDC299624DDE3F6B
(1685659543.518804) vcan1 104#02968845FAAD2D70
(1685659543.529160) vcan1 104#26D70D289FBFBF0C
(1685659543.539352) vcan1 104#4D85703E3C98347D
(1685659543.549496) vcan1 104#AE23A57C00AB7518
(1685659543.559593) vcan1 104#33F4791B18CB5E66
(1685659543.572191) vcan1 104#488E532C7EA6BA32
(1685659543.583512) vcan1 104#831C8D16EB3F4B2F
(1685659543.594596) vcan1 104#344D1C05081B334F
(1685659543.607196) vcan1 104#4026A77E09DC2E42
(1685659543.618690) vcan1 104#5D2CEA0565C41C4B
(1685659543.629898) vcan1 104#00083D431CE96E21
(1685659543.641161) vcan1 104#FD8897132E5DF231
(1685659543.652324) vcan1 104#E7D48B5F1673276D
(1685659543.663445) vcan1 104#F5F3A56614F10D46
(1685659543.673543) vcan1 104#2ADD8A19F2B63F49
(1685659543.684333) vcan1 104#61CF4D312D73135F
(1685659543.695003) vcan1 104#EC646D3987A65B59
(1685659543.705325) vcan1 104#CC32D36B39EADD77
(1685659543.716288) vcan1 104#C33E90567A567868
(1685659543.727135) vcan1 104#3A955310F7320A72
(1685659543.738660) vcan1 104#9221D74E8223A73C
(1685659543.749102) vcan1 104#75D9C424153E6465
(1685659543.760172) vcan1 104#6D63F26BA926E129
(1685659543.772163) vcan1 104#1E599734AD89996A
(1685659543.784792) vcan1 104#B302106C7B85813A
(1685659543.795433) vcan1 104#134EB635B30A4D2F
(1685659543.807668) vcan1 104#976EF05B10D74D49
(1685659543.820312) vcan1 104#E1673F617E437C3B
(1685659543.831687) vcan1 104#264A7536D65BE547
(1685659543.843693) vcan1 104#92348A0151270050
(1685659543.856330) vcan1 104#C8122511F303D832
(1685659543.868231) vcan1 104#7E9A132FB477924A
(1685659543.879998) vcan1 104#7AAA330C4ACDE61A
(1685659543.892246) vcan1 104#ED6170423EE9C362
(1685659543.904347) vcan1 104#C4235F0327F7C352
(1685659543.915630) vcan1 104#351CCE5456453652
(1685659543.928290) vcan1 104#AA1A6B0FAAF59279
(1685659543.939534) vcan1 104#6B839A37177E5D7B
(1685659543.952153) vcan1 104#531C742389DC316C
(1685659543.962319) vcan1 104#C507F765061F840F
(1685659543.974292) vcan1 104#0462B326D855AD1B
(1685659543.986899) vcan1 104#B929D13E9BD0A302
(1685659543.999511) vcan1 104#E82CFB649A911020
(1685659544.011855) vcan1 104#1914203E0F77701B
(1685659544.024405) vcan1 104#70EDF567AB48AA3F
(1685659544.035784) vcan1 104#609E706B38001B79
(1685659544.046383) vcan1 104#9E4C8272DE38841A
(1685659544.056619) vcan1 104#EC77AD4319F7B57E
(1685659544.069051) vcan1 104#28066B35DAD91D06
(1685659544.080405) vcan1 104#57E07961EC29CA38
(1685659544.092411) vcan1 104#01D1E1588CFC4736
(1685659544.103397) vcan1 104#426F000BABEB4C68
(1685659544.114430) vcan1 104#36F2DA2FADF29A42
(1685659544.125575) vcan1 104#C369AA63890E4F53
(1685659544.136387) vcan1 104#37CFCC2E8871A149
(1685659544.149016) vcan1 104#902DD3623B318055
(1685659544.159246) vcan1 104#60C74E654957A421
(1685659544.170426) vcan1 104#D701245848F4494A
(1685659544.180625) vcan1 104#E4E8B441F0154416
(1685659544.191225) vcan1 104#576BBA6554D6AA29
(1685659544.201710) vcan1 104#9C5EEE55B7092B51
(1685659544.213379) vcan1 104#8DD6C5223AAB7048
(1685659544.225980) vcan1 104#9542AF6B794E7366
(1685659544.238575) vcan1 104#53A22647BD481A21
(1685659544.251173) vcan1 104#5328916CAA82A028
(1685659544.262654) vcan1 104#A972E45955F97245
(1685659544.273866) vcan1 104#367FE85EEBE1E464
(1685659544.285133) vcan1 104#00E5BF2D6C71C30E
(1685659544.296224) vcan1 104#99D47F27C34E6A11
(1685659544.307208) vcan1 104#F67F1262D0A34C56
(1685659544.318042) vcan1 104#4BC00B5B86ADE544
(1685659544.328297) vcan1 104#0BD5CC2BAB875A40
(1685659544.338453) vcan1 104#CF048A66E2D6F003
(1685659544.351084) vcan1 104#F47BA40AB3ED3E28
(1685659544.363472) vcan1 104#D3EC341A4BE75E70
(1685659544.376116) vcan1 104#08C4E9516F4B2370
(1685659544.388746) vcan1 104#03F18941959AAF74
(1685659544.400410) vcan1 104#A9F693389833392D
(1685659544.410901) vcan1 104#0EE9225BFD98BA7F
(1685659544.421668) vcan1 104#567C534E6211B447
(1685659544.433318) vcan1 104#A71B5B28FFEE3728
(1685659544.445935) vcan1 104#B70A270DDE9A4307
(1685659544.458572) vcan1 104#EBD01C0DB7EFE63A
(1685659544.469695) vcan1 104#4A0C071684A59C34
(1685659544.480995) vcan1 104#7B3E514C408C1978
(1685659544.491682) vcan1 104#5449E90AC6FE5C27
(1685659544.504098) vcan1 104#C639FF3C5F1EB636
(1685659544.516735) vcan1 104#7286B767963E8923
(1685659544.527153) vcan1 104#42F5A63A66025C72
(1685659544.537679) vcan1 104#492CC84B15E2DB54
(1685659544.548394) vcan1 104#B1E9BA6251F0B11D
(1685659544.558619) vcan1 104#842DFF44B4DA4424
(1685659544.569723) vcan1 104#E68A61122D24937D
(1685659544.581777) vcan1 104#4D0E7E51F573846D
(1685659544.593169) vcan1 104#2ABD4D7DA38AD11F
(1685659544.605042) vcan1 104#57853835D2D8A825
(1685659544.616664) vcan1 104#A27909480E905F42
(1685659544.628021) vcan1 104#B073EC2C8D4A2655
(1685659544.640638) vcan1 104#C57F467DFA7FF342
(1685659544.653265) vcan1 104#11F0C20940BE9749
(1685659544.664007) vcan1 104#3B0C0D3B6539AC14
(1685659544.675758) vcan1 104#07BDF47001460C78
(1685659544.686197) vcan1 104#C557624B7943AC58
(1685659544.696296) vcan1 104#9784951B074D0906
(1685659544.707344) vcan1 104#DF45084BE1B05D67
(1685659544.718551) vcan1 104#1C2FE55A902FC32D
(1685659544.730494) vcan1 104#32A10F05A05CE41F
(1685659544.743085) vcan1 104#450A0852192C7117
(1685659544.754486) vcan1 104#CD80771D92188623
(1685659544.765374) vcan1 104#0EA0F504F83DC51A
(1685659544.775956) vcan1 104#35A3574365252E3A
(1685659544.786555) vcan1 104#CA166E40D71C610B
(1685659544.796828) vcan1 104#73B58D7C7A8A5A6D
(1685659544.807252) vcan1 104#656787603835D479
(1685659544.819231) vcan1 104#740A4E3076574A6A
(1685659544.829928) vcan1 104#79F36B43AF165B6B
(1685659544.840312) vcan1 104#DC90F67E80B06034
(1685659544.852402) vcan1 104#B15C6763A1E8584A
(1685659544.862948) vcan1 104#F9F30C0D48E1FC7E
(1685659544.873326) vcan1 104#A8356250D8391558
(1685659544.884213) vcan1 104#29925A66C464472B
(1685659544.894396) vcan1 104#6869D8055C336A6B
(1685659544.905365) vcan1 104#64C12B4BAD73E057
(1685659544.916009) vcan1 104#755FDB023142A368
(1685659544.926418) vcan1 104#3F8C667B83FFD007
(1685659544.936518) vcan1 104#29806803742FBE3E
(1685659544.947583) vcan1 104#E824FF41F396D643
(1685659544.958081) vcan1 104#4C4C1F4A5BDA8C3E
(1685659544.968408) vcan1 104#6D213131B1B3A62A
(1685659544.978665) vcan1 104#930F6138E22B7F61
(1685659544.989244) vcan1 104#270BF1140C03CD7B
(1685659544.999344) vcan1 104#9142DA4C039CE713
(1685659545.011412) vcan1 104#8CB32D30429F4130
(1685659545.024036) vcan1 104#A484405E85A73A3D
(1685659545.034244) vcan1 104#8B803E2F4CBAA22E
(1685659545.044489) vcan1 104#5DE14F15B4129915
(1685659545.055092) vcan1 104#101FEA59C64A281B
(1685659545.065290) vcan1 104#1046030174E01525
(1685659545.076417) vcan1 104#73BE087385A5DE03
(1685659545.087538) vcan1 104#A622B90DB34A6F6E
(1685659545.098452) vcan1 104#08A5AF0BCFA22111
(1685659545.109103) vcan1 104#277A2D2DF0C9AE4D
(1685659545.119415) vcan1 104#C339F85473C64C77
(1685659545.130288) vcan1 104#4BA43B0C305B2906
(1685659545.141576) vcan1 104#247AF321DFB39C44
(1685659545.152291) vcan1 104#1287A8674C85E436
(1685659545.162690) vcan1 104#EBB66940A4C98234
(1685659545.174002) vcan1 104#4F21CC4A786A9770
(1685659545.184391) vcan1 104#E668C464F4A50C29
(1685659545.195251) vcan1 104#FD11D22D71E90214
(1685659545.205655) vcan1 104#4060AF575BF32143
(1685659545.216169) vcan1 104#26FC9B29517F9931
(1685659545.227945) vcan1 104#213E4A5E36429F2A
(1685659545.238166) vcan1 104#C55FAF5694FC5251
(1685659545.248435) vcan1 104#BCE77D2E6B826864
(1685659545.259104) vcan1 104#4747C23FC48C2D3A
(1685659545.270368) vcan1 104#3B258A756FC1EF6C
(1685659545.281390) vcan1 104#B556DC07FE5E824A
(1685659545.292487) vcan1 104#E2873C6400FB1714
(1685659545.303381) vcan1 104#2EBAAB5007023006
(1685659545.314771) vcan1 104#DFAEB45841415438
(1685659545.326267) vcan1 104#5387143DCB651E19
(1685659545.336422) vcan1 104#E50AD76CA2A8E007
(1685659545.346653) vcan1 104#43D0B509CB739B51
(1685659545.357352) vcan1 104#964EED3040E28737
(1685659545.367497) vcan1 104#3D5D9E65D7AE9C08
(1685659545.377745) vcan1 104#9BD5A97A63593A0F
(1685659545.388447) vcan1 104#282E363ABC13F458
(1685659545.399867) vcan1 104#999BD939ED8DE510
(1685659545.411124) vcan1 104#5110472A55835768
(1685659545.422420) vcan1 104#59104E759857096A
(1685659545.432733) vcan1 104#1A1085229435D86A
(1685659545.443176) vcan1 104#0719F956CF66612A
(1685659545.453361) vcan1 104#92945A35EAA0353B
(1685659545.464198) vcan1 104#CF61793EC04E0606
(1685659545.475279) vcan1 104#F1A26541AF102E17
(1685659545.485425) vcan1 104#01905A3E442A7A7E
(1685659545.495533) vcan1 104#7A764C30E69A312B
(1685659545.506745) vcan1 104#E6D25A06BD46023A
(1685659545.519341) vcan1 104#B20ECD7C7D214837
(1685659545.530212) vcan1 104#FD288A71EF6B6B62
(1685659545.540773) vcan1 104#54D0E43F99FE336C
(1685659545.551234) vcan1 104#52C5A5717CFE1A7A
(1685659545.561348) vcan1 104#55122845EB607F2B
(1685659545.571702) vcan1 104#698C000BA6226F6F
(1685659545.581871) vcan1 104#41E4D613C29C4E00
(1685659545.592394) vcan1 104#3F7A78595BF45B36
(1685659545.603530) vcan1 104#56D2266B46937130
(1685659545.616137) vcan1 104#2A5BBD60E8668120
(1685659545.628734) vcan1 104#3034A76BF9BC361F
(1685659545.638902) vcan1 104#A9B5872621D70C2D
(1685659545.649172) vcan1 104#A8CD6436AA45E264
(1685659545.659655) vcan1 104#6501872B2244B166
(1685659545.671090) vcan1 104#91E013104CD4E131
(1685659545.682116) vcan1 104#DF8AB32043EFE00C
(1685659545.693359) vcan1 104#C9F52969DDB33D12
(1685659545.705972) vcan1 104#325B4C6F1DC60E29
(1685659545.718641) vcan1 104#76B2717E8420F260
(1685659545.729769) vcan1 104#99C42923CBC49943
(1685659545.742383) vcan1 104#6F81710C02512A2E
(1685659545.754981) vcan1 104#72E70833B0654820
(1685659545.767581) vcan1 104#C5ED782EB161810C
(1685659545.780176) vcan1 104#0B5AA4561BC09F19
(1685659545.792370) vcan1 104#F7F4F23C35B56137
(1685659545.803624) vcan1 104#0427213A28299A28
(1685659545.813878) vcan1 104#2F729856ADDCA860
(1685659545.824386) vcan1 104#4900A755D73FFD0C
(1685659545.834515) vcan1 104#57228B45AF012E01
(1685659545.845399) vcan1 104#FA83AE73E8029F55
(1685659545.858015) vcan1 104#FBD50F33D90E6214
(1685659545.869023) vcan1 104#2BF27F62C4CB391C
(1685659545.880912) vcan1 104#B6C29F265D4DCC51
(1685659545.891812) vcan1 104#E19148452C751125
(1685659545.903496) vcan1 104#E16DBE327A567268
(1685659545.915029) vcan1 104#F839AB6851EF2F3F
(1685659545.925511) vcan1 104#7CA79C166A21B41B
(1685659545.935631) vcan1 104#0155785F41951545
(1685659545.946055) vcan1 104#1B8335280DAF1C36
(1685659545.956376) vcan1 104#5D55B55E12782865
(1685659545.966518) vcan1 104#42647E6D617CD618
(1685659545.976569) vcan1 104#3AA1C20D71D61644
(1685659545.987243) vcan1 104#0E597F7984A16963
(1685659545.998848) vcan1 104#49161451657B0A3F
(1685659546.010337) vcan1 104#33A39764439AC244
(1685659546.021193) vcan1 104#4E7EA9142E79A717
(1685659546.031279) vcan1 104#1CA9245979702977
(1685659546.041904) vcan1 104#F244E133D36BC47F
(1685659546.052910) vcan1 104#D7BDF548D3D62979
(1685659546.064769) vcan1 104#FFE0D524B82BB47B
(1685659546.075629) vcan1 104#4D2D9C61F71A810D
(1685659546.086650) vcan1 104#091BE43AC9D43878
(1685659546.099299) vcan1 104#613C35290B705C1A
(1685659546.109804) vcan1 104#0B6A4E3D7CBF6A51
(1685659546.119929) vcan1 104#181F795068BF031C
(1685659546.130328) vcan1 104#8F3793365A83F73D
(1685659546.140500) vcan1 104#C93BDA34C9D85544
(1685659546.150659) vcan1 104#CC590E02D794592E
(1685659546.160851) vcan1 104#4D7ABF2715702253
(1685659546.171068) vcan1 104#3C10646D801D570C
(1685659546.181274) vcan1 104#580AE5178A8E0D02
(1685659546.191528) vcan1 104#AE96FE2374B30971
(1685659546.203764) vcan1 104#04FF3679A0DBDF57
(1685659546.214584) vcan1 104#471FCE70DBBC2C42
(1685659546.224736) vcan1 104#73B209514700A415
(1685659546.235668) vcan1 104#93E8E03DC0DFA532
(1685659546.248295) vcan1 104#3E1B25239D03C578
(1685659546.260169) vcan1 104#8AB4DE2AA0575A4C
(1685659546.271333) vcan1 104#A8732113951E2D68
