date Thu Jun 01 06:45:21.472 PM 2023
base hex  timestamps absolute
internal events logged
Begin Triggerblock Thu Jun 01 06:45:23.341 PM 2023
 0.000000 Start of measurement
 0.000000 2  104             Tx   d 8 F6 B6 D1 37 98 F1 D5 3C
 0.010131 2  104             Tx   d 8 1A E5 FD 3F 58 57 DD 12
 0.020211 2  104             Tx   d 8 53 63 2A 45 BB 06 E6 6D
 0.030284 2  104             Tx   d 8 20 99 70 2C 51 37 C2 60
 0.040484 2  104             Tx   d 8 5D CB 19 5B 26 56 DA 20
 0.052339 2  104             Tx   d 8 68 69 88 38 68 B5 F7 30
 0.064392 2  104             Tx   d 8 7C 00 AB 6D 4B 85 1C 58
 0.076415 2  104             Tx   d 8 33 37 F0 2C D1 4E C6 6C
 0.087759 2  104             Tx   d 8 60 FC CF 76 B5 0B 75 2C
 0.098001 2  104             Tx   d 8 BF 74 43 6B 92 BC 77 34
 0.109574 2  104             Tx   d 8 7B 86 35 62 3B 1F A3 48
 0.119849 2  104             Tx   d 8 FB 98 A3 5D 9A 1D 84 0C
 0.130343 2  104             Tx   d 8 46 7D 6D 3A 7B F7 A0 1D
 0.142393 2  104             Tx   d 8 A8 26 14 0B CE A1 71 10
 0.153795 2  104             Tx   d 8 65 29 DE 77 98 F7 F8 74
 0.165864 2  104             Tx   d 8 89 FB EC 76 5B E0 AF 2F
 0.175973 2  104             Tx   d 8 30 E9 CE 31 A3 E0 EA 36
 0.186303 2  104             Tx   d 8 B3 37 8D 42 83 4C F9 76
 0.196856 2  104             Tx   d 8 5E E7 D0 24 D4 D0 FD 6E
 0.207227 2  104             Tx   d 8 D4 83 BB 57 BC B2 EA 7F
 0.218006 2  104             Tx   d 8 FA 26 D8 0F 3C ED 43 10
 0.229711 2  104             Tx   d 8 24 68 E2 30 77 27 83 7D
 0.241618 2  104             Tx   d 8 88 72 60 68 57 9F D2 5D
 0.253704 2  104             Tx   d 8 48 76 49 6A E8 6E 30 5F
 0.264828 2  104             Tx   d 8 0C AB 47 0A 07 EB 8C 55
 0.275169 2  104             Tx   d 8 7A 2B A8 13 88 31 7D 6C
 0.286148 2  104             Tx   d 8 43 0A 30 1E 75 C4 4B 71
 0.297851 2  104             Tx   d 8 22 4F 01 79 89 87 9D 58
 0.308140 2  104             Tx   d 8 F1 BB EC 0E CA 75 15 04
 0.318612 2  104             Tx   d 8 57 29 0F 69 56 E5 CA 06
 0.328729 2  104             Tx   d 8 62 6D 0E 79 E0 24 FC 5F
 0.339934 2  104             Tx   d 8 B1 C5 7A 36 92 56 DD 2A
 0.352055 2  104             Tx   d 8 83 05 E7 16 65 FD 07 79
 0.364228 2  104             Tx   d 8 15 A3 D6 21 E2 EC B7 3B
 0.376413 2  104             Tx   d 8 39 CE 05 68 E9 26 92 79
 0.386789 2  104             Tx   d 8 9E 9F A2 3B 33 F5 DD 77
 0.397082 2  104             Tx   d 8 25 14 D6 09 C2 07 85 6C
 0.407583 2  104             Tx   d 8 AA 1C 61 75 AD 86 36 72
 0.417693 2  104             Tx   d 8 1A A7 57 4A F3 92 AA 5F
 0.430060 2  104             Tx   d 8 96 F5 66 51 26 52 9F 54
 0.441530 2  104             Tx   d 8 FA 7D 37 35 10 21 0F 65
 0.453048 2  104             Tx   d 8 AE 83 1C 41 3D 88 67 53
 0.464454 2  104             Tx   d 8 86 E5 5A 56 D0 D2 1D 3A
 0.476041 2  104             Tx   d 8 C7 0F 05 2C 77 A1 47 65
 0.487769 2  104             Tx   d 8 9A 48 33 3E 1E 39 14 15
 0.498178 2  104             Tx   d 8 CD 86 12 6C FC B5 41 37
 0.508329 2  104             Tx   d 8 FF 5D 10 75 7E 4C 8D 22
 0.519437 2  104             Tx   d 8 8E 0C 1F 62 82 63 F7 0B
 0.530482 2  104             Tx   d 8 E3 49 95 1B A3 AF F5 03
 0.541346 2  104             Tx   d 8 64 50 AF 47 1C 18 9B 03
 0.551490 2  104             Tx   d 8 8C D6 87 7D 02 F0 51 03
 0.561666 2  104             Tx   d 8 50 0D 79 7B B2 EA 5D 07
 0.571778 2  104             Tx   d 8 C5 F7 D6 6F FA 29 DA 70
 0.581878 2  104             Tx   d 8 5F 71 94 79 DF 9E 2E 3A
 0.591961 2  104             Tx   d 8 ED BC 84 50 F5 66 FB 4A
 0.602137 2  104             Tx   d 8 05 F1 CD 0E E8 3A BC 05
 0.612236 2  104             Tx   d 8 06 88 0A 30 B4 74 EA 4F
 0.622440 2  104             Tx   d 8 25 C3 23 59 8C 6D 65 06
 0.632519 2  104             Tx   d 8 84 47 08 0A EC D2 28 05
 0.642595 2  104             Tx   d 8 03 0F AD 6B 1F 90 3B 48
 0.652745 2  104             Tx   d 8 0B 0C 3D 1A D0 95 BF 57
 0.662937 2  104             Tx   d 8 1B 46 7D 7F 0A 6A 4D 0F
 0.673196 2  104             Tx   d 8 4E E2 4C 7A AA 52 9C 61
 0.683319 2  104             Tx   d 8 8C CD 44 1B 32 2C E2 15
 0.694132 2  104             Tx   d 8 4D 02 92 65 F1 1D F4 62
 0.704209 2  104             Tx   d 8 4E 44 7D 19 DA D8 19 63
 0.714511 2  104             Tx   d 8 F3 0D 46 66 9E 51 F6 14
 0.724937 2  104             Tx   d 8 8C C3 77 6A B8 05 1D 56
 0.735067 2  104             Tx   d 8 99 7B D0 05 EB 34 0C 64
 0.745519 2  104             Tx   d 8 97 A4 4B 10 86 38 55 56
 0.755940 2  104             Tx   d 8 E1 9B 07 2F 9D 95 19 1F
 0.766375 2  104             Tx   d 8 6E 73 11 5C E7 23 12 5F
 0.776934 2  104             Tx   d 8 51 0A 04 6F 94 36 35 35
 0.787546 2  104             Tx   d 8 73 91 77 65 D5 51 0C 79
 0.799366 2  104             Tx   d 8 80 09 5E 3A 76 A0 24 51
 0.811301 2  104             Tx   d 8 F4 E1 47 41 8B 15 9B 54
 0.822650 2  104             Tx   d 8 46 36 E4 28 10 28 C5 40
 0.832732 2  104             Tx   d 8 95 7F E8 63 94 18 31 23
 0.842863 2  104             Tx   d 8 BA 7A 61 22 22 4D 2D 7F
 0.853772 2  104             Tx   d 8 C6 44 13 39 07 7D F3 07
 0.864296 2  104             Tx   d 8 13 6B 21 62 15 89 90 52
 0.876599 2  104             Tx   d 8 E1 55 0D 6B 06 79 67 48
 0.887533 2  104             Tx   d 8 B3 DA 86 67 6D 19 85 55
 0.897876 2  104             Tx   d 8 BF 7E 84 1E 4C 56 57 6D
 0.909632 2  104             Tx   d 8 59 4E 91 39 56 23 D0 2E
 0.920439 2  104             Tx   d 8 D3 8E AC 43 3A EA 98 68
 0.930688 2  104             Tx   d 8 F3 B8 E9 4D 41 02 BE 1F
 0.941021 2  104             Tx   d 8 21 0E AB 47 44 C3 ED 3C
 0.951686 2  104             Tx   d 8 D5 38 F3 54 94 9F 22 2D
 0.962262 2  104             Tx   d 8 1A 15 FA 35 56 42 51 0F
 0.972730 2  104             Tx   d 8 0A 40 47 7E 0E F7 41 77
 0.983079 2  104             Tx   d 8 E1 57 EC 63 50 76 2B 27
 0.993250 2  104             Tx   d 8 1E 1F 07 38 77 D7 D4 47
 1.003343 2  104             Tx   d 8 E4 8E 5C 4A D8 99 68 5A
 1.013743 2  104             Tx   d 8 99 24 02 47 AB D3 6F 03
 1.024257 2  104             Tx   d 8 E0 16 5C 62 AC 8F 23 29
 1.034597 2  104             Tx   d 8 C0 5C 00 56 C1 6C 69 4D
 1.045514 2  104             Tx   d 8 B2 08 8B 71 73 37 87 3D
 1.056237 2  104             Tx   d 8 2F 86 EE 22 71 87 0F 10
 1.165639 1  103             Tx   d 8 07 BD E5 6F 31 03 58 4C
 1.066693 2  104             Tx   d 8 C0 8D DE 2A 88 D4 7F 5C
 1.170972 1  103             Tx   d 8 47 5F 97 18 B1 09 D7 72
 1.077078 2  104             Tx   d 8 C8 AA DF 3E 93 1C 8B 6E
 1.176047 1  103             Tx   d 8 23 61 AA 22 06 2F 7F 4B
 1.087262 2  104             Tx   d 8 C2 BE 18 45 BB 63 C9 0C
 1.181913 1  103             Tx   d 8 33 C0 B8 61 2D 04 F0 1A
 1.098360 2  104             Tx   d 8 D4 1E 49 0E E3 CC C3 0C
 1.187301 1  103             Tx   d 8 38 54 50 5A E8 9B BF 3B
 1.110397 2  104             Tx   d 8 00 27 B7 49 AA 57 3C 63
 1.192923 1  103             Tx   d 8 4E C9 58 39 0D E2 ED 73
 1.122399 2  104             Tx   d 8 77 6C E6 39 1A 3C B1 7F
 1.198175 1  103             Tx   d 8 DC D6 B4 66 B4 0B 5A 0E
 1.134503 2  104             Tx   d 8 00 9A 8D 72 81 AC 2D 38
 1.203381 1  103             Tx   d 8 EE 59 5E 2B 48 75 DB 45
 1.145900 2  104             Tx   d 8 28 33 F3 76 E1 F1 79 56
 1.208652 1  103             Tx   d 8 5C 86 F4 1B 7B F4 19 4E
 1.158081 2  104             Tx   d 8 D1 22 59 5F 47 52 FA 2E
 1.214656 1  103             Tx   d 8 9C 7D F5 5E 5A 8C CA 0B
 1.168767 2  104             Tx   d 8 58 C9 4E 1E B5 B1 B5 29
 1.220997 1  103             Tx   d 8 DE 7B D7 49 69 8D B8 60
 1.179535 2  104             Tx   d 8 1F EC 62 09 F1 ED 50 65
 1.226335 1  103             Tx   d 8 B1 79 B4 38 9C 2F 44 58
 1.190173 2  104             Tx   d 8 60 85 25 2D FF 02 BF 6B
 1.231584 1  103             Tx   d 8 95 DB 72 0D 6B 62 64 5B
 1.200768 2  104             Tx   d 8 9D 7D 74 0E 20 E2 25 03
 1.236909 1  103             Tx   d 8 DB A1 2B 79 E0 8E F6 75
 1.211060 2  104             Tx   d 8 C1 6F 28 39 50 86 FF 7F
 1.242552 1  103             Tx   d 8 03 8B 09 28 F7 36 AC 32
 1.221164 2  104             Tx   d 8 94 19 AD 40 F0 F5 16 5C
 1.248889 1  103             Tx   d 8 9D 12 06 12 0A 48 EF 17
 1.231364 2  104             Tx   d 8 C1 0D 0F 10 54 A7 8B 6B
 1.255231 1  103             Tx   d 8 28 3A 04 7F E4 71 9D 2A
 1.241611 2  104             Tx   d 8 78 CA 96 38 89 B8 EE 4E
 1.261567 1  103             Tx   d 8 BC 51 C6 0A 4B 9B AE 21
 1.251692 2  104             Tx   d 8 E7 C3 16 5A 3A 89 AF 7D
 1.267406 1  103             Tx   d 8 EB A0 1C 76 EF 11 7F 6C
 1.262591 2  104             Tx   d 8 45 1C B8 5B BB E2 5F 68
 1.272477 1  103             Tx   d 8 78 9F 9E 3C 23 F5 6C 50
 1.272667 2  104             Tx   d 8 1D 56 73 0A 45 43 6F 25
 1.278173 1  103             Tx   d 8 D7 AD 3E 28 C6 68 F7 75
 1.283319 2  104             Tx   d 8 65 3A 9C 4B 94 C2 59 44
 1.284509 1  103             Tx   d 8 30 D7 5A 44 B4 84 F3 0E
 1.294040 2  104             Tx   d 8 5F 7F 20 25 65 D4 29 3E
 1.290534 1  103             Tx   d 8 7A 74 51 04 1E 31 B9 6F
 1.304560 2  104             Tx   d 8 15 6F 87 7C 87 B2 13 1C
 1.295979 1  103             Tx   d 8 FC F9 CE 54 D6 FA 45 20
 1.315018 2  104             Tx   d 8 47 C6 A3 14 E6 91 E0 5B
 1.302328 1  103             Tx   d 8 9A 25 D3 3D 98 77 C4 33
 1.325412 2  104             Tx   d 8 CE 04 0E 4B 9F 8F F2 32
 1.308668 1  103             Tx   d 8 30 87 10 2C 78 A1 AA 07
 1.335635 2  104             Tx   d 8 9B 43 96 05 EE F0 70 54
 1.315008 1  103             Tx   d 8 01 05 7D 14 E1 00 C5 64
 1.346349 2  104             Tx   d 8 91 7D 43 18 FC C8 BB 32
 1.320662 1  103             Tx   d 8 14 D1 EE 5F 96 E0 EF 21
 1.357307 2  104             Tx   d 8 ED F3 2F 40 2E FB B7 26
 1.325744 1  103             Tx   d 8 4C 63 29 40 EF 72 1A 59
 1.367962 2  104             Tx   d 8 1C AB E1 35 AE 63 58 79
 1.331067 1  103             Tx   d 8 76 6F E6 17 50 EE 32 68
 1.378123 2  104             Tx   d 8 7E 81 B7 26 B0 C4 8E 76
 1.337404 1  103             Tx   d 8 E6 A9 C6 0B 13 82 EC 29
 1.388280 2  104             Tx   d 8 9E 59 6F 55 40 8F C6 36
 1.342587 1  103             Tx   d 8 5A 36 22 00 0E E4 CA 0A
 1.398681 2  104             Tx   d 8 04 6C 1A 62 16 24 06 0E
 1.348925 1  103             Tx   d 8 F8 F3 89 54 16 88 E8 0A
 1.409463 2  104             Tx   d 8 C9 47 B5 05 EB 2F 31 3C
 1.355266 1  103             Tx   d 8 59 7F 79 2C E3 94 A6 4A
 1.419601 2  104             Tx   d 8 50 AD B5 0B 0E 64 6D 61
 1.361609 1  103             Tx   d 8 05 9A 67 77 D1 1E 18 69
 1.430177 2  104             Tx   d 8 A7 12 91 24 6D 03 29 16
 1.367960 1  103             Tx   d 8 06 8A 13 1B DD 47 A6 1F
 1.440335 2  104             Tx   d 8 53 A7 DC 06 0C 4D 2D 70
 1.374307 1  103             Tx   d 8 98 87 0F 5F 36 61 6E 5F
 1.450486 2  104             Tx   d 8 01 C6 82 5A B2 26 FD 2B
 1.379807 1  103             Tx   d 8 91 CC 99 2E 12 FC 60 63
 1.460580 2  104             Tx   d 8 72 21 57 2E 16 35 0A 57
 1.386146 1  103             Tx   d 8 55 92 27 4F 8D C6 68 03
 1.470749 2  104             Tx   d 8 3A D9 10 48 B9 E7 FA 42
 1.391264 1  103             Tx   d 8 E9 F6 A6 03 EF B7 FA 0C
 1.481722 2  104             Tx   d 8 FC C6 EA 32 08 DE 1E 13
 1.397605 1  103             Tx   d 8 25 3E 2D 37 19 7E B7 2F
 1.491959 2  104             Tx   d 8 58 77 ED 75 98 0A 81 38
 1.403949 1  103             Tx   d 8 67 59 A5 14 27 43 AA 4B
 1.502044 2  104             Tx   d 8 F6 CE 8F 67 E9 F4 30 0E
 1.409465 1  103             Tx   d 8 FB 7E 7C 14 7B 2A 94 74
 1.512138 2  104             Tx   d 8 94 D3 3C 6B E4 C2 BF 27
 1.415808 1  103             Tx   d 8 BD 23 9A 6D 47 E2 A5 54
 1.522268 2  104             Tx   d 8 18 F0 E8 34 B0 7E 1E 21
 1.420893 1  103             Tx   d 8 6B 9D AE 4D 34 93 80 05
 1.532434 2  104             Tx   d 8 92 26 18 21 96 71 A0 5B
 1.425998 1  103             Tx   d 8 97 D0 D8 3C 51 47 75 59
 1.542627 2  104             Tx   d 8 61 43 AD 17 31 80 87 76
 1.432344 1  103             Tx   d 8 47 15 6D 2F F2 06 FB 3C
 1.552880 2  104             Tx   d 8 D6 00 67 12 65 AF C7 79
 1.437763 1  103             Tx   d 8 60 2B 40 64 3F 09 F7 03
 1.563001 2  104             Tx   d 8 47 A4 8D 04 A0 48 1C 18
 1.444105 1  103             Tx   d 8 08 8F E3 47 B9 AA B9 10
 1.573090 2  104             Tx   d 8 51 DF F8 35 98 51 43 10
 1.449524 1  103             Tx   d 8 22 9E 9D 4E 0E 29 4B 3F
 1.583190 2  104             Tx   d 8 AE AC 89 79 F8 F1 89 5A
 1.455867 1  103             Tx   d 8 8B C9 D1 79 28 28 B1 69
 1.593328 2  104             Tx   d 8 05 55 6C 26 02 54 66 00
 1.461228 1  103             Tx   d 8 EB 70 F1 5E 23 51 E1 58
 1.603419 2  104             Tx   d 8 04 3F B7 4A 07 1B EF 00
 1.467576 1  103             Tx   d 8 5F 89 1F 49 7C 3D 8B 0D
 1.613493 2  104             Tx   d 8 B4 7A 63 2C 76 60 0E 79
 1.473065 1  103             Tx   d 8 35 4D 42 3C B4 1B 47 18
 1.623572 2  104             Tx   d 8 1D 50 F9 57 EE 53 74 74
 1.479408 1  103             Tx   d 8 09 04 F4 10 1E 44 E9 3F
 1.633705 2  104             Tx   d 8 2F 48 09 3C 1A 17 E4 0A
 1.485122 1  103             Tx   d 8 A3 D3 41 25 2E 42 21 48
 1.645639 2  104             Tx   d 8 F7 31 93 07 88 BF F6 31
 1.490370 1  103             Tx   d 8 38 C2 A0 6F 0A 2D E7 39
 1.655706 2  104             Tx   d 8 B2 21 65 43 ED 00 23 6F
 1.495464 1  103             Tx   d 8 55 85 CB 13 33 41 1D 04
 1.665823 2  104             Tx   d 8 71 B4 27 40 46 F5 A1 2E
 1.501806 1  103             Tx   d 8 85 57 7B 2E 13 A9 65 01
 1.675896 2  104             Tx   d 8 D1 C3 E2 16 89 A4 10 75
 1.506916 1  103             Tx   d 8 7A 23 C3 58 F0 F4 29 7C
 1.685969 2  104             Tx   d 8 F6 73 C0 4F 64 EA FA 37
 1.512497 1  103             Tx   d 8 47 3C E6 06 12 F4 9B 15
 1.696039 2  104             Tx   d 8 20 16 B1 50 57 B7 6D 67
 1.517689 1  103             Tx   d 8 42 3C 9F 55 8E 51 53 36
 1.706127 2  104             Tx   d 8 95 6A 82 2E F6 16 18 63
 1.522985 1  103             Tx   d 8 04 FB 96 52 A2 67 DF 39
 1.716412 2  104             Tx   d 8 BD 66 35 61 DC 0E 10 33
 1.528070 1  103             Tx   d 8 CE 5A 4A 3A 0C 8A 7A 1A
 1.727278 2  104             Tx   d 8 96 5F 34 7B 0E 46 2E 17
 1.533786 1  103             Tx   d 8 5B 12 99 4A F0 F8 E7 08
 1.738225 2  104             Tx   d 8 74 60 53 43 45 0C BE 74
 1.538934 1  103             Tx   d 8 1A B3 C5 59 E6 DB 6A 44
 1.748296 2  104             Tx   d 8 06 38 B8 71 7A B5 BF 69
 1.544798 1  103             Tx   d 8 19 21 99 72 05 24 B7 38
 1.758368 2  104             Tx   d 8 47 60 24 75 0A 77 6F 3C
 1.550692 1  103             Tx   d 8 09 2D 4C 1D 78 AA B8 3B
 1.768409 2  104             Tx   d 8 81 D0 AE 6A FB DA 87 21
 1.555917 1  103             Tx   d 8 81 61 42 46 3F 7A 8E 59
 1.778643 2  104             Tx   d 8 81 D7 7D 35 9E 20 A8 42
 1.561711 1  103             Tx   d 8 2C C6 FF 53 8A 65 36 57
 1.789362 2  104             Tx   d 8 EA 2E FC 15 B0 1F 87 71
 1.566922 1  103             Tx   d 8 5D BE 77 19 CF 99 41 79
 1.799438 2  104             Tx   d 8 B8 37 8C 4D E1 60 8F 1D
 1.573259 1  103             Tx   d 8 B9 A7 57 1F 95 80 18 09
 1.809836 2  104             Tx   d 8 38 DF 7D 23 6A 59 F1 10
 1.579157 1  103             Tx   d 8 D9 C6 28 33 0E 2D 23 33
 1.820919 2  104             Tx   d 8 CE 61 B2 0C AA 93 A5 63
 1.584633 1  103             Tx   d 8 C8 C1 35 0D 5E 1E A4 61
 1.830988 2  104             Tx   d 8 B0 4E 93 3F A0 25 95 23
 1.589879 1  103             Tx   d 8 21 D6 88 34 43 E5 F8 65
 1.843262 2  104             Tx   d 8 33 38 B6 58 A7 C2 53 0F
 1.594974 1  103             Tx   d 8 4F 13 CE 5D 68 12 6F 3B
 1.854126 2  104             Tx   d 8 04 10 90 5B 53 4E 67 29
 1.600103 1  103             Tx   d 8 55 D9 94 7B 91 4F 6D 33
 1.864177 2  104             Tx   d 8 FE 79 C1 76 99 7A 12 0A
 1.605251 1  103             Tx   d 8 F7 63 C2 71 59 D4 2B 4E
 1.874347 2  104             Tx   d 8 4A 65 7F 0C BB E0 F6 57
 1.610362 1  103             Tx   d 8 33 B7 4C 6D C5 BE 0C 2C
 1.885465 2  104             Tx   d 8 75 89 22 3D E0 C4 B3 07
 1.615444 1  103             Tx   d 8 65 5E A6 68 8E C9 E5 37
 1.898046 2  104             Tx   d 8 C9 26 25 6F EA E9 75 00
 1.620513 1  103             Tx   d 8 B5 B7 F4 34 80 11 6C 42
 1.908118 2  104             Tx   d 8 25 D1 71 7C CF 5E DD 60
 1.625616 1  103             Tx   d 8 75 A5 50 7C CE D8 8D 27
 1.920163 2  104             Tx   d 8 64 9F 35 6A 6C 31 96 71
 1.632202 1  103             Tx   d 8 85 35 23 7B 7E D2 9C 19
 1.931254 2  104             Tx   d 8 DA D5 4C 1D E5 6F E4 54
 1.637373 1  103             Tx   d 8 46 83 46 63 07 97 65 41
 1.943841 2  104             Tx   d 8 68 0C 1E 13 5B AD CA 52
 1.643708 1  103             Tx   d 8 BD 4C 2B 73 72 49 46 37
 1.955172 2  104             Tx   d 8 83 90 8C 17 52 3B 1A 29
 1.648776 1  103             Tx   d 8 91 FC 9B 18 1B 0B A3 0C
 1.965756 2  104             Tx   d 8 0B CD 51 44 3C C8 18 65
 1.653842 1  103             Tx   d 8 41 E3 87 30 4A A4 F3 37
 1.978342 2  104             Tx   d 8 33 9C A9 46 44 AC CF 67
 1.658912 1  103             Tx   d 8 B0 8B BB 15 1A AA B0 63
 1.990934 2  104             Tx   d 8 A6 21 0A 76 01 FE 5B 53
 1.664966 1  103             Tx   d 8 59 D1 16 6B 79 4D F1 22
 2.003527 2  104             Tx   d 8 EE 3F 75 4B 57 70 9D 35
 1.670752 1  103             Tx   d 8 79 C8 54 45 7A A7 9F 1F
 2.014461 2  104             Tx   d 8 A1 23 F1 76 21 78 2B 24
 1.675819 1  103             Tx   d 8 BC 32 EA 08 C8 DB 22 23
 2.027044 2  104             Tx   d 8 FE 32 F1 44 A5 33 81 52
 1.680895 1  103             Tx   d 8 E3 B9 0E 5B 11 0C 7F 04
 2.038132 2  104             Tx   d 8 75 C6 92 4D FC AC B2 3B
 1.686015 1  103             Tx   d 8 59 2B 90 56 DA 1D D1 4C
 2.050721 2  104             Tx   d 8 3E AE 93 5C BF 2B 12 5A
 1.691421 1  103             Tx   d 8 6A E0 AA 52 8C E2 DC 43
 2.063317 2  104             Tx   d 8 B8 8D A9 13 B4 37 B6 19
 1.696488 1  103             Tx   d 8 9F DC DD 78 CF 3E 51 3B
 2.075909 2  104             Tx   d 8 9F F0 C5 61 81 B4 CE 02
 1.701798 1  103             Tx   d 8 1A AC C2 7B 54 94 D2 2D
 2.086873 2  104             Tx   d 8 9E 21 2C 1A C5 C1 37 5E
 1.707166 1  103             Tx   d 8 4F 50 BD 7D 8F 51 13 78
 2.099464 2  104             Tx   d 8 51 13 AC 63 02 C1 61 04
 1.712463 1  103             Tx   d 8 23 6D 60 55 D5 85 E0 78
 2.111861 2  104             Tx   d 8 31 F3 CD 4F 2B E9 F8 00
 1.718099 1  103             Tx   d 8 0E 24 B0 11 69 F0 A6 38
 2.122771 2  104             Tx   d 8 E7 30 46 59 99 FF EB 62
 1.723279 1  103             Tx   d 8 DC 1C 46 3A CB 70 DB 04
 2.132842 2  104             Tx   d 8 86 96 C3 53 6A C1 D2 70
 1.728402 1  103             Tx   d 8 DC 39 ED 6F 6D 19 E2 52
 2.143608 2  104             Tx   d 8 EB 3A 06 0C 91 63 15 18
 1.733834 1  103             Tx   d 8 E6 7B 7E 11 1D 1D 75 20
 2.155739 2  104             Tx   d 8 A6 89 EB 55 1E D7 AF 52
 1.738885 1  103             Tx   d 8 B8 BD D5 0A 97 07 3A 27
 2.168330 2  104             Tx   d 8 D5 0F E5 7F 4D AB F5 4B
 1.744042 1  103             Tx   d 8 38 C7 25 04 11 8F EC 75
 2.180916 2  104             Tx   d 8 20 D5 0B 26 C3 4F 5A 4B
 1.749108 1  103             Tx   d 8 10 55 2B 4A B1 8F 7A 49
 2.193507 2  104             Tx   d 8 A4 1B 93 01 C1 F8 FC 1C
 1.754186 1  103             Tx   d 8 8B 36 8C 15 CC 87 15 53
 2.204229 2  104             Tx   d 8 E5 C7 85 6F A2 4E 84 46
 1.759529 1  103             Tx   d 8 79 6B 9D 6C 6E F0 9A 70
 2.214298 2  104             Tx   d 8 67 2C 7E 6F 5A 8E 18 3D
 1.764601 1  103             Tx   d 8 DD 93 94 57 D2 96 2D 43
 2.226777 2  104             Tx   d 8 9E FB 36 02 A5 DA 11 4C
 1.770347 1  103             Tx   d 8 48 0E 6C 3D 47 74 3F 2A
 2.237796 2  104             Tx   d 8 19 BA 2A 17 56 89 E0 15
 1.776680 1  103             Tx   d 8 5E 79 0A 07 E7 EA 49 36
 2.250212 2  104             Tx   d 8 59 12 C8 65 B8 AA F0 78
 1.781767 1  103             Tx   d 8 16 B3 90 65 78 25 CD 02
 2.262399 2  104             Tx   d 8 D8 3D AF 18 F7 33 F4 7F
 1.787660 1  103             Tx   d 8 3C 7F 1C 64 66 03 4E 63
 2.274991 2  104             Tx   d 8 7D 6C 28 57 29 51 5B 7C
 1.793616 1  103             Tx   d 8 08 77 E0 7A 5F EC 7C 39
 2.286356 2  104             Tx   d 8 F9 F4 55 04 AF 5F F6 26
 1.798740 1  103             Tx   d 8 3B 89 2E 5C 16 9B 90 0C
 2.297636 2  104             Tx   d 8 54 3A 54 7D E0 25 9C 5D
 1.804204 1  103             Tx   d 8 C8 DC 23 72 17 A6 74 16
 2.309345 2  104             Tx   d 8 48 5F E2 09 DA D0 17 51
 1.809835 1  103             Tx   d 8 E1 0B 6C 11 A4 16 11 62
 2.321653 2  104             Tx   d 8 4B E7 6E 4E 34 9A E8 15
 1.814928 1  103             Tx   d 8 84 BF 56 69 C8 87 EA 22
 2.333622 2  104             Tx   d 8 6B 34 2D 69 F1 70 5A 24
 1.821047 1  103             Tx   d 8 C2 33 86 02 3C 7D 2C 74
 2.346120 2  104             Tx   d 8 52 71 98 68 41 44 12 69
 1.826156 1  103             Tx   d 8 5F 8F 24 4A FA FA AB 06
 2.358711 2  104             Tx   d 8 3E 1C 50 70 72 46 A4 0E
 1.831258 1  103             Tx   d 8 4D 0C 19 6A 6F E4 4F 14
 2.371308 2  104             Tx   d 8 04 94 6C 34 E2 37 E3 71
 1.837085 1  103             Tx   d 8 AB 8A 26 50 D9 42 A5 7F
 2.383922 2  104             Tx   d 8 34 3F A1 2B E9 5B F2 23
 1.843414 1  103             Tx   d 8 3B 6C 65 67 24 F6 C3 3C
 2.396518 2  104             Tx   d 8 84 86 67 38 9B 6B 1F 1B
 1.848480 1  103             Tx   d 8 47 33 40 70 18 00 FA 3E
 2.407107 2  104             Tx   d 8 43 EA 0A 61 23 82 9E 3A
 1.854343 1  103             Tx   d 8 F6 8C F1 7F 90 41 AC 2D
 2.417965 2  104             Tx   d 8 40 46 31 67 5C A4 35 78
 1.859664 1  103             Tx   d 8 5F 74 39 69 54 06 FC 06
 2.428394 2  104             Tx   d 8 79 0B 7F 50 9A 58 F9 4C
 1.864732 1  103             Tx   d 8 77 2C F6 63 75 27 CA 4E
 2.439287 2  104             Tx   d 8 15 4F 26 71 51 49 2E 69
 1.870557 1  103             Tx   d 8 CC 2B C9 09 B3 AB 12 48
 2.449431 2  104             Tx   d 8 91 8C ED 4C 92 BB 4E 48
 1.875631 1  103             Tx   d 8 DB 2A 18 32 D4 A2 A9 04
 2.459673 2  104             Tx   d 8 7A 9A 89 65 8B 81 43 51
 1.880795 1  103             Tx   d 8 12 98 8F 01 16 B4 46 0E
 2.469779 2  104             Tx   d 8 41 1B 45 6F CE D4 DD 62
 1.886627 1  103             Tx   d 8 EA 3D 3A 11 DB 74 B3 73
 2.480332 2  104             Tx   d 8 6B A7 DF 2E 8A 7A 27 79
 1.891771 1  103             Tx   d 8 2D 5A BB 24 CC 49 A6 22
 2.490773 2  104             Tx   d 8 A8 A5 F5 33 B6 8E 4E 7D
 1.897544 1  103             Tx   d 8 7F 8B C4 55 B2 19 12 0E
 2.500969 2  104             Tx   d 8 BE 14 10 0F 14 DA 22 1D
 1.903609 1  103             Tx   d 8 94 D1 90 45 41 BF 4A 58
 2.511200 2  104             Tx   d 8 A8 FF A8 21 10 86 A8 77
 1.908675 1  103             Tx   d 8 EE 96 3E 02 F3 60 B5 0F
 2.521474 2  104             Tx   d 8 55 1E 35 06 E6 1B F9 11
 1.914393 1  103             Tx   d 8 3B BA F6 5E 3C A3 57 6C
 2.531876 2  104             Tx   d 8 83 CC 4C 06 59 B2 A1 3A
 1.919728 1  103             Tx   d 8 62 45 05 24 E6 44 1D 2F
 2.542044 2  104             Tx   d 8 C9 53 DC 03 B7 0B EE 31
 1.924794 1  103             Tx   d 8 15 E6 FC 6B 9D B1 6A 0B
 2.552702 2  104             Tx   d 8 43 0E 94 5E 4D DA 43 3C
 1.930424 1  103             Tx   d 8 0A 3B E1 6B 5C 19 3D 5C
 2.563002 2  104             Tx   d 8 52 77 0D 4D 86 F8 9E 3F
 1.935918 1  103             Tx   d 8 B5 B1 64 4A 00 C8 D2 6B
 2.573306 2  104             Tx   d 8 70 5C E2 76 92 BD 3E 34
 1.941744 1  103             Tx   d 8 EC 5A E9 09 14 26 9E 33
 2.583416 2  104             Tx   d 8 E3 9C D4 37 EA 67 61 47
 1.946928 1  103             Tx   d 8 54 CE CE 72 64 87 DF 6D
 2.593519 2  104             Tx   d 8 2C 16 38 01 F8 EB FA 28
 1.952433 1  103             Tx   d 8 89 4D 68 02 21 FA 97 7C
 2.605562 2  104             Tx   d 8 3B B1 8F 30 BE A2 25 4E
 1.958215 1  103             Tx   d 8 17 33 F2 35 65 78 80 34
 2.616940 2  104             Tx   d 8 8A A7 49 71 B6 4B 19 16
 1.963505 1  103             Tx   d 8 F5 9C 41 01 2A CB 81 37
 2.628307 2  104             Tx   d 8 49 24 69 1F CC C2 8E 60
 1.969289 1  103             Tx   d 8 7B 2C C7 42 E0 DA 7B 12
 2.638850 2  104             Tx   d 8 84 20 F7 78 B4 CB 48 4E
 1.974571 1  103             Tx   d 8 05 40 35 2B A9 86 82 67
 2.649258 2  104             Tx   d 8 56 3D B6 59 2D C6 EC 2C
 1.980102 1  103             Tx   d 8 AC 24 22 35 84 CB F9 00
 2.659619 2  104             Tx   d 8 6B 5A 97 4B 14 52 C6 68
 1.985981 1  103             Tx   d 8 5B A0 94 75 40 F6 B2 7A
 2.669842 2  104             Tx   d 8 41 A0 0F 4A 13 5A 40 6D
 1.991286 1  103             Tx   d 8 C6 8A 44 59 49 37 D3 77
 2.679924 2  104             Tx   d 8 24 D8 6E 60 96 BE 44 50
 1.996905 1  103             Tx   d 8 33 57 68 0A 01 45 3B 38
 2.690420 2  104             Tx   d 8 F9 75 39 7F A7 A4 BB 66
 2.002364 1  103             Tx   d 8 85 DA 2A 64 95 9C 6D 2E
 2.700639 2  104             Tx   d 8 EF 70 E6 0A C2 C9 15 03
 2.007779 1  103             Tx   d 8 E8 89 58 67 9A C0 27 50
 2.712260 2  104             Tx   d 8 5E B0 A9 18 32 7F 7A 69
 2.013668 1  103             Tx   d 8 32 4E D8 39 F2 C4 39 53
 2.722354 2  104             Tx   d 8 10 A4 59 3F B0 27 B7 65
 2.018829 1  103             Tx   d 8 F7 D9 64 2C E7 FF 3C 04
 2.732959 2  104             Tx   d 8 B9 77 19 29 80 00 3C 36
 2.024418 1  103             Tx   d 8 F3 8C 0C 3F E3 34 4E 36
 2.743202 2  104             Tx   d 8 43 E5 F5 19 9C 14 EE 60
 2.030096 1  103             Tx   d 8 FB 25 DB 37 47 5B DB 31
 2.753417 2  104             Tx   d 8 6A 68 9D 7D 6F FB 2D 1B
 2.035440 1  103             Tx   d 8 47 BC 2D 24 84 73 43 3A
 2.763505 2  104             Tx   d 8 94 00 E9 09 A6 19 2D 2E
 2.041107 1  103             Tx   d 8 68 55 73 2E 5F EF 1F 5A
 2.774562 2  104             Tx   d 8 2D 9E 53 69 1E A8 32 7B
 2.046354 1  103             Tx   d 8 E9 EB C3 6E 5E F2 B4 2F
 2.787176 2  104             Tx   d 8 5C 65 46 44 76 C2 BC 08
 2.051599 1  103             Tx   d 8 89 BA A1 11 65 18 8B 31
 2.797864 2  104             Tx   d 8 EA 6A C1 5B E0 85 3D 3D
 2.057444 1  103             Tx   d 8 3E CD 30 42 8E FA D6 3C
 2.808031 2  104             Tx   d 8 2B 8E 05 57 40 A8 77 35
 2.062587 1  103             Tx   d 8 0E 9F 0D 19 EA F1 52 77
 2.818911 2  104             Tx   d 8 0D 4C 2A 6A 96 E8 9C 22
 2.068166 1  103             Tx   d 8 12 C6 D0 3D 69 3F A2 0E
 2.830507 2  104             Tx   d 8 54 FA 3D 1E 4E EC 39 34
 2.074070 1  103             Tx   d 8 2A E8 05 72 D8 50 15 17
 2.841225 2  104             Tx   d 8 A9 42 DD 0F 79 D2 AC 7E
 2.079481 1  103             Tx   d 8 B2 76 75 06 5D 3F 6E 7C
 2.853034 2  104             Tx   d 8 E4 AA 7E 04 A2 B8 16 0F
 2.085164 1  103             Tx   d 8 DA 95 50 4F 38 51 A0 6A
 2.863329 2  104             Tx   d 8 20 77 68 65 D4 1B 65 0F
 2.090354 1  103             Tx   d 8 F2 DB DB 2A C2 1F A9 36
 2.873726 2  104             Tx   d 8 65 82 2C 12 7F 27 12 7E
 2.095687 1  103             Tx   d 8 D2 11 C8 3A 24 2A B4 64
 2.884748 2  104             Tx   d 8 06 9B DF 78 75 26 86 51
 2.100835 1  103             Tx   d 8 B4 E4 E2 09 C9 EB 2C 67
 2.895261 2  104             Tx   d 8 2F 4F C9 63 BF 12 F9 21
 2.106523 1  103             Tx   d 8 0B 2A F1 68 A7 71 EF 48
 2.905737 2  104             Tx   d 8 F5 26 C2 07 72 34 BF 7D
 2.111755 1  103             Tx   d 8 AD 20 7B 1D 06 50 CC 20
 2.917639 2  104             Tx   d 8 5B 27 E7 02 60 8F 5F 05
 2.117541 1  103             Tx   d 8 EF CC CA 7A F4 DC A8 41
 2.929838 2  104             Tx   d 8 E2 2F ED 18 EF 27 D0 0C
 2.122812 1  103             Tx   d 8 8A C3 0F 5B 57 22 3E 29
 2.940209 2  104             Tx   d 8 06 A9 8C 33 0F CE 40 02
 2.127902 1  103             Tx   d 8 53 CC C8 1B 74 AF D3 49
 2.950440 2  104             Tx   d 8 0E D0 02 08 62 0E D3 77
 2.133022 1  103             Tx   d 8 B5 14 F3 58 DC 86 6A 2D
 2.960737 2  104             Tx   d 8 86 90 FD 0A F8 3A C4 63
 2.138497 1  103             Tx   d 8 D9 C7 5E 7B F3 E1 23 1B
 2.970846 2  104             Tx   d 8 42 94 10 35 B1 1E 03 62
 2.143602 1  103             Tx   d 8 6A 81 41 6A E7 66 6C 14
 2.981744 2  104             Tx   d 8 39 E3 3B 19 50 E0 3A 1F
 2.149413 1  103             Tx   d 8 DD D3 76 12 7D 47 12 28
 2.992693 2  104             Tx   d 8 47 07 A0 04 8D DD 79 37
 2.155449 1  103             Tx   d 8 50 A6 0E 23 07 BC 7C 04
 3.003616 2  104             Tx   d 8 9E CC 74 53 F0 49 7D 14
 2.160548 1  103             Tx   d 8 55 98 27 3F 02 1D 84 29
 3.014701 2  104             Tx   d 8 06 B0 26 36 83 77 F3 57
 2.166148 1  103             Tx   d 8 64 FB EA 00 2F 2E 78 0E
 3.025981 2  104             Tx   d 8 92 02 94 23 27 27 8F 1B
 2.171837 1  103             Tx   d 8 3A 6E 24 14 56 D7 C6 2B
 3.036139 2  104             Tx   d 8 57 93 58 67 F7 84 C0 35
 2.177478 1  103             Tx   d 8 F1 4D 21 45 0D 80 EC 4E
 3.046202 2  104             Tx   d 8 A6 4E A1 19 5D 2E 38 60
 2.183272 1  103             Tx   d 8 7A 01 7B 10 A6 32 04 4F
 3.057479 2  104             Tx   d 8 6C AB 46 07 D5 9D 6A 7D
 2.189055 1  103             Tx   d 8 D6 6B 19 36 85 2B 6C 79
 3.068833 2  104             Tx   d 8 1D 41 31 02 62 D2 08 0F
 2.194445 1  103             Tx   d 8 4D A4 F3 17 83 8C 94 53
 3.080314 2  104             Tx   d 8 48 D2 29 7B 78 68 18 05
 2.200472 1  103             Tx   d 8 8B 7B 38 1A 3C 71 BE 12
 3.092036 2  104             Tx   d 8 C2 61 68 14 2A 02 17 14
 2.205621 1  103             Tx   d 8 78 69 3D 15 16 3F 48 75
 3.104038 2  104             Tx   d 8 68 90 E8 11 C8 0A F5 47
 2.210700 1  103             Tx   d 8 94 93 FC 3B CB 35 06 31
 3.114433 2  104             Tx   d 8 39 D0 57 16 76 60 EB 19
 2.215814 1  103             Tx   d 8 8A EE 1B 3F 49 A8 EF 14
 3.124592 2  104             Tx   d 8 2A 19 C8 3F BF 60 55 21
 2.220922 1  103             Tx   d 8 A8 BC 70 5E 63 B6 7A 3A
 3.135529 2  104             Tx   d 8 6E 9B AF 7D 6C AD D8 74
 2.226074 1  103             Tx   d 8 3D 8A 13 30 12 3E B2 48
 3.146434 2  104             Tx   d 8 70 7F 58 03 A7 7E EB 16
 2.231159 1  103             Tx   d 8 4A 1D E7 4E 1A 5E 8A 42
 3.157189 2  104             Tx   d 8 BC 8D 13 14 B7 86 F8 07
 2.236781 1  103             Tx   d 8 8F 85 C4 70 9A C3 F5 71
 3.167911 2  104             Tx   d 8 35 5C 65 4E 5B 5A 88 67
 2.241924 1  103             Tx   d 8 22 1A 07 47 E5 1D EC 2F
 3.178617 2  104             Tx   d 8 A7 D0 75 1C 3B 0C 8C 04
 2.247161 1  103             Tx   d 8 9C E0 79 1B 86 15 F2 47
 3.189315 2  104             Tx   d 8 DE D1 7B 3F 3A D3 09 40
 2.252459 1  103             Tx   d 8 14 4C 64 3E D7 4E 9E 2F
 3.199433 2  104             Tx   d 8 62 33 1B 20 35 65 D4 26
 2.258332 1  103             Tx   d 8 DD EC B8 73 06 9A 85 03
 3.210363 2  104             Tx   d 8 31 58 CA 75 08 82 BC 39
 2.263422 1  103             Tx   d 8 E4 CE 8A 7E 57 EE 33 04
 3.221121 2  104             Tx   d 8 92 93 0C 07 9E 03 11 7D
 2.269423 1  103             Tx   d 8 AC CC 89 52 BA 3A A4 34
 3.231290 2  104             Tx   d 8 DE 1F 27 37 AF D4 3D 09
 2.274995 1  103             Tx   d 8 DD 19 A0 7D F9 70 7D 6A
 3.241689 2  104             Tx   d 8 00 D6 19 0C 26 F2 50 32
 2.280852 1  103             Tx   d 8 3E C7 38 08 68 95 D8 17
 3.252314 2  104             Tx   d 8 28 3D 56 0E C2 37 82 20
 2.286465 1  103             Tx   d 8 36 E2 3B 7D B6 30 76 1D
 3.262589 2  104             Tx   d 8 50 F4 67 46 90 CD 3E 20
 2.292475 1  103             Tx   d 8 7E D4 20 0D CA 75 38 39
 3.273622 2  104             Tx   d 8 8A 42 77 68 89 C4 BF 5C
 2.297591 1  103             Tx   d 8 81 66 7C 4E 08 C3 3C 4C
 3.285629 2  104             Tx   d 8 06 2E 2A 3A B4 5B 3F 28
 2.303540 1  103             Tx   d 8 13 1E 28 4E 29 23 ED 2C
 3.296491 2  104             Tx   d 8 49 25 15 7E 74 C9 D9 37
 2.309341 1  103             Tx   d 8 6B 79 B7 06 50 A8 3B 7E
 3.307710 2  104             Tx   d 8 20 09 18 1D B9 A4 6D 01
 2.315281 1  103             Tx   d 8 3C 61 9F 75 B5 96 9E 55
 3.318366 2  104             Tx   d 8 1C 48 C5 4E DD 96 2B 31
 2.320431 1  103             Tx   d 8 6B 06 C6 40 CB E6 63 66
 3.330911 2  104             Tx   d 8 71 2B 66 09 51 A4 2A 1D
 2.326384 1  103             Tx   d 8 4F 5A 94 47 8D 20 CD 07
 3.342850 2  104             Tx   d 8 38 F1 B3 18 18 FC DB 25
 2.332400 1  103             Tx   d 8 B0 04 50 16 EC 3A 0E 63
 3.353546 2  104             Tx   d 8 8C B0 B6 21 16 C3 2F 58
 2.337687 1  103             Tx   d 8 13 36 BF 4F C5 50 B4 54
 3.365426 2  104             Tx   d 8 52 CF E5 65 EF E3 D1 41
 2.343470 1  103             Tx   d 8 C3 89 AC 12 F0 22 78 43
 3.377307 2  104             Tx   d 8 4B 28 04 7F 84 27 B0 5B
 2.349306 1  103             Tx   d 8 CB EA 39 58 A7 58 37 11
 3.387598 2  104             Tx   d 8 F7 65 8E 7B DD BB 10 06
 2.355284 1  103             Tx   d 8 48 11 AC 47 77 B7 C3 2A
 3.398446 2  104             Tx   d 8 22 2B C1 58 D5 85 B5 32
 2.361170 1  103             Tx   d 8 61 93 DB 45 25 2B 4C 45
 3.408674 2  104             Tx   d 8 8D 90 4E 0F 22 01 DB 64
 2.367138 1  103             Tx   d 8 70 28 41 15 9F 5A 14 4E
 3.419587 2  104             Tx   d 8 FB 77 06 65 B5 CD A4 1D
 2.372996 1  103             Tx   d 8 8D C0 24 5D A6 0A 7D 12
 3.430446 2  104             Tx   d 8 E4 38 5D 05 4B 6C 6E 2B
 2.378900 1  103             Tx   d 8 55 8B 8A 6B 0C 95 45 6A
 3.441217 2  104             Tx   d 8 45 9B E3 3D 6E 7B D4 6D
 2.383988 1  103             Tx   d 8 70 80 B5 4B D7 F1 06 3A
 3.452267 2  104             Tx   d 8 D5 30 2E 08 4B C9 0D 78
 2.389884 1  103             Tx   d 8 14 58 82 36 84 9E DD 19
 3.463015 2  104             Tx   d 8 22 D7 13 16 1E 56 43 06
 2.395602 1  103             Tx   d 8 00 15 F4 66 80 D1 39 3D
 3.473756 2  104             Tx   d 8 BF 92 E7 2F 42 E0 2B 33
 2.401430 1  103             Tx   d 8 D4 46 19 18 3C 76 93 5C
 3.484369 2  104             Tx   d 8 D7 FA B0 07 DB DA AC 7E
 2.407108 1  103             Tx   d 8 35 68 D8 12 3F 4D DF 58
 3.494629 2  104             Tx   d 8 1F 77 57 64 48 26 17 11
 2.412694 1  103             Tx   d 8 08 5D F7 42 85 C2 6C 5A
 3.504782 2  104             Tx   d 8 2C 7F D7 1B 57 68 0B 7D
 2.417967 1  103             Tx   d 8 CC 6D AC 60 B8 61 47 59
 3.514920 2  104             Tx   d 8 61 22 F3 36 B9 2F 8E 3D
 2.423365 1  103             Tx   d 8 71 FD 7A 3D E0 A3 6B 30
 3.526187 2  104             Tx   d 8 6D 2B 3B 55 B3 F1 D8 1C
 2.428463 1  103             Tx   d 8 7D B2 FB 2D 34 87 27 50
 3.536695 2  104             Tx   d 8 A8 13 60 7F B8 53 3F 54
 2.433743 1  103             Tx   d 8 D0 C6 E3 73 48 9D 35 06
 3.548392 2  104             Tx   d 8 37 19 89 78 9F 79 EE 7A
 2.439131 1  103             Tx   d 8 DB DF 5E 61 18 D8 8F 3B
 3.558688 2  104             Tx   d 8 96 0F 50 5A 59 44 4A 51
 2.444223 1  103             Tx   d 8 BF 54 F9 30 3C 73 3A 27
 3.568809 2  104             Tx   d 8 75 FF A3 2D 23 A0 9E 69
 2.449324 1  103             Tx   d 8 3D 03 DC 00 30 7D 3A 46
 3.579998 2  104             Tx   d 8 7B 45 25 36 70 77 AA 12
 2.454561 1  103             Tx   d 8 DC CD 4E 75 CB C3 00 5E
 3.590112 2  104             Tx   d 8 D8 6D 43 07 5F 7E 82 3B
 2.459662 1  103             Tx   d 8 D6 87 B7 58 31 59 D9 60
 3.600290 2  104             Tx   d 8 BC E3 18 3E 1D 09 27 45
 2.465483 1  103             Tx   d 8 D7 58 46 48 47 08 6D 24
 3.610994 2  104             Tx   d 8 CD F9 56 29 91 14 47 46
 2.470745 1  103             Tx   d 8 08 4B E0 1A EB B0 C8 7E
 3.621178 2  104             Tx   d 8 68 D2 34 3D EF D0 6A 3F
 2.476472 1  103             Tx   d 8 CB A6 4A 3E 09 60 D4 01
 3.631703 2  104             Tx   d 8 AF 6A 8A 4C 27 65 1C 6D
 2.481850 1  103             Tx   d 8 6B 82 02 3C 9F ED 63 56
 3.642097 2  104             Tx   d 8 32 B1 96 72 86 65 3B 54
 2.487475 1  103             Tx   d 8 45 D6 67 5E A1 EA DA 4E
 3.652344 2  104             Tx   d 8 03 40 C9 6B 51 28 EE 56
 2.492990 1  103             Tx   d 8 DF 3A 43 2F 4D 33 5F 21
 3.662577 2  104             Tx   d 8 CF 8B 52 65 2F BF A0 07
 2.498363 1  103             Tx   d 8 26 AD 47 29 AB A8 EF 0F
 3.674557 2  104             Tx   d 8 A9 90 F9 53 30 AE 45 1C
 2.504037 1  103             Tx   d 8 06 95 A6 7A 97 AA C2 66
 3.685386 2  104             Tx   d 8 E8 EE 2E 45 16 BC 34 29
 2.509983 1  103             Tx   d 8 8B 4C 5B 40 83 47 A2 28
 3.696472 2  104             Tx   d 8 E3 9F 1E 39 90 02 8F 44
 2.515867 1  103             Tx   d 8 CB 31 EA 36 5C 13 3F 34
 3.708357 2  104             Tx   d 8 CF 0F 74 7D 1B B9 A7 31
 2.521447 1  103             Tx   d 8 CC E4 D7 2E A6 11 49 18
 3.720597 2  104             Tx   d 8 30 7C 7D 3F 65 1F C4 57
 2.526586 1  103             Tx   d 8 74 EB CE 6F 8B 39 D1 5F
 3.732572 2  104             Tx   d 8 74 FD F1 02 A5 7B 21 6D
 2.531878 1  103             Tx   d 8 E2 84 83 3F B2 EE AA 70
 3.744450 2  104             Tx   d 8 88 BF 62 41 F0 42 17 39
 2.537445 1  103             Tx   d 8 BB B6 0B 26 BE 52 D2 34
 3.755393 2  104             Tx   d 8 15 F3 CB 7F 60 2D A6 48
 2.542638 1  103             Tx   d 8 7D B2 AB 4E 92 3E C3 7E
 3.767531 2  104             Tx   d 8 4F C1 99 74 D1 D6 E4 3D
 2.548056 1  103             Tx   d 8 F0 AB AB 15 54 0B F2 16
 3.779391 2  104             Tx   d 8 7D 36 CD 0D 1D BB F0 1D
 2.553505 1  103             Tx   d 8 D9 46 30 23 F8 F6 8B 30
 3.790523 2  104             Tx   d 8 62 EB 2B 04 E5 08 02 4B
 2.558590 1  103             Tx   d 8 3F BC BA 15 A4 ED 7A 61
 3.800635 2  104             Tx   d 8 0C 8C 5B 5D 11 56 B6 50
 2.564475 1  103             Tx   d 8 01 57 60 32 AB 3E BD 51
 3.811139 2  104             Tx   d 8 0C 6E 1E 38 3E 3D F2 4F
 2.570512 1  103             Tx   d 8 43 DB DE 37 47 2D C8 10
 3.821270 2  104             Tx   d 8 98 BB F1 24 0F AE E7 23
 2.576446 1  103             Tx   d 8 4C 29 98 20 22 16 22 67
 3.831635 2  104             Tx   d 8 90 65 E0 26 67 47 44 0A
 2.582352 1  103             Tx   d 8 94 60 27 32 72 D6 DF 49
 3.844002 2  104             Tx   d 8 3F 6D 88 2B 39 F6 D9 7A
 2.588295 1  103             Tx   d 8 CE BE 11 77 9A F5 CD 2C
 3.854360 2  104             Tx   d 8 97 F5 89 26 27 5C B7 70
 2.593489 1  103             Tx   d 8 09 81 A2 30 59 0B 6D 37
 3.865231 2  104             Tx   d 8 4F B2 0E 24 7A 95 A8 5F
 2.598919 1  103             Tx   d 8 1E 3D 70 55 D4 B2 8C 67
 3.875382 2  104             Tx   d 8 B8 5E 46 35 1E C2 82 21
 2.604300 1  103             Tx   d 8 B5 1E AC 6B EA 21 48 04
 3.885469 2  104             Tx   d 8 95 4E 50 11 E8 DA C3 74
 2.609388 1  103             Tx   d 8 7A C4 D5 7F 2A 0A 7B 5B
 3.895571 2  104             Tx   d 8 83 E1 46 79 0A 4C 42 14
 2.614652 1  103             Tx   d 8 75 5B 19 64 5C 49 59 3F
 3.905787 2  104             Tx   d 8 8D 56 E5 61 0B A1 A9 3A
 2.619747 1  103             Tx   d 8 DC F8 25 4C 31 12 25 0A
 3.916603 2  104             Tx   d 8 FA 8E 59 4D A2 49 B1 61
 2.625525 1  103             Tx   d 8 1B 9C 2B 74 59 AB D1 1A
 3.927183 2  104             Tx   d 8 6B CE 4F 03 49 50 F3 41
 2.630641 1  103             Tx   d 8 C3 50 E8 08 0B 48 D7 09
 3.937471 2  104             Tx   d 8 74 20 96 1F E8 04 1D 11
 2.636642 1  103             Tx   d 8 AD B6 C3 31 9C 97 18 2C
 3.947655 2  104             Tx   d 8 66 0B E4 5F D6 0B C2 23
 2.642383 1  103             Tx   d 8 03 3F 63 3A EC 72 7E 47
 3.958795 2  104             Tx   d 8 CD 0D 1F 5C 73 97 3F 3D
 2.647930 1  103             Tx   d 8 40 85 93 0D 05 96 C3 6C
 3.969983 2  104             Tx   d 8 E8 61 78 74 DA 7B 3D 14
 2.653763 1  103             Tx   d 8 97 B1 3B 19 83 60 72 45
 3.981205 2  104             Tx   d 8 B1 D4 31 0D 80 1D 6A 19
 2.659097 1  103             Tx   d 8 4C C3 8B 7D E3 DA D3 39
 3.992491 2  104             Tx   d 8 E9 29 25 38 41 3A 12 34
 2.664366 1  103             Tx   d 8 A6 76 94 2C E0 23 B3 2F
 4.002952 2  104             Tx   d 8 E7 64 AE 23 28 97 AD 63
 2.669838 1  103             Tx   d 8 55 B1 B3 03 74 35 A6 23
 4.013080 2  104             Tx   d 8 7A 30 EC 2E 7E 5A 38 4A
 2.675219 1  103             Tx   d 8 7B 19 81 5C 5E 32 56 34
 4.023182 2  104             Tx   d 8 50 F3 64 54 CA E2 FA 52
 2.680344 1  103             Tx   d 8 CD 40 13 5B 99 56 F1 31
 4.033309 2  104             Tx   d 8 F8 EF E0 29 08 52 AB 09
 2.685419 1  103             Tx   d 8 32 E5 E2 1B 83 5F BF 46
 4.043461 2  104             Tx   d 8 E8 A4 7D 74 8E 3E 31 3B
 2.690601 1  103             Tx   d 8 83 78 39 36 AC A9 B8 1B
 4.053671 2  104             Tx   d 8 F0 2C 6F 7E 6C 86 C4 6D
 2.695644 1  103             Tx   d 8 AD 69 3A 22 F8 D3 52 1A
 4.063940 2  104             Tx   d 8 98 8A 73 4F 7D 83 54 60
 2.700982 1  103             Tx   d 8 09 F3 11 5B 89 62 60 6E
 4.074395 2  104             Tx   d 8 77 27 6E 28 92 19 CD 1C
 2.706119 1  103             Tx   d 8 29 E6 77 24 24 8F 3D 4F
 4.084754 2  104             Tx   d 8 1F CD 05 42 E3 F5 BD 2B
 2.711239 1  103             Tx   d 8 E2 0D 32 09 EC 36 60 2D
 4.094886 2  104             Tx   d 8 DB 69 C0 5E 93 ED 9B 61
 2.716349 1  103             Tx   d 8 2F D7 14 59 8F C4 F5 3A
 4.105587 2  104             Tx   d 8 CB FA DA 3C 42 75 A4 3E
 2.721694 1  103             Tx   d 8 88 CE 78 59 32 16 78 13
 4.115732 2  104             Tx   d 8 6A F9 5D 05 99 08 FA 18
 2.727038 1  103             Tx   d 8 7B 37 74 02 C8 53 0C 67
 4.125889 2  104             Tx   d 8 B5 0C E4 7B 52 5B D6 79
 2.732957 1  103             Tx   d 8 37 AC 3B 00 13 E9 AF 1B
 4.136493 2  104             Tx   d 8 73 84 37 2D 66 E1 15 09
 2.738348 1  103             Tx   d 8 4C B4 7E 2C 83 6F C7 7D
 4.147377 2  104             Tx   d 8 D2 78 40 13 5C AE 5C 65
 2.743693 1  103             Tx   d 8 F6 C3 83 55 F2 2A 13 59
 4.158162 2  104             Tx   d 8 A8 1B 28 3D B9 DD EE 36
 2.749054 1  103             Tx   d 8 64 93 7A 2D 4C 75 37 59
 4.168575 2  104             Tx   d 8 85 45 0A 49 22 4C 14 6C
 2.754225 1  103             Tx   d 8 66 60 B9 7C DF AC FB 09
 4.178898 2  104             Tx   d 8 37 38 27 01 D5 38 6F 1D
 2.759466 1  103             Tx   d 8 AA A7 8D 0D 33 A1 CC 57
 4.188998 2  104             Tx   d 8 EC 2E 0F 3F 2F 28 08 2B
 2.764568 1  103             Tx   d 8 78 03 ED 3B DD 8C 70 29
 4.199569 2  104             Tx   d 8 DD 8A 1A 27 D5 D3 8C 33
 2.769648 1  103             Tx   d 8 B6 00 8C 1E FB 7B 26 72
 4.209755 2  104             Tx   d 8 BD 66 39 66 CD B7 89 25
 2.774805 1  103             Tx   d 8 89 36 29 45 63 6A C6 40
 4.220008 2  104             Tx   d 8 41 5A 51 21 55 F1 AC 35
 2.780881 1  103             Tx   d 8 F3 4F 79 0C 92 29 3B 20
 4.230764 2  104             Tx   d 8 4A 3B DE 05 B8 81 BF 49
 2.786362 1  103             Tx   d 8 EC CC 26 2F 1D 36 F1 30
 4.241221 2  104             Tx   d 8 E7 0A 7A 52 69 08 E4 47
 2.791569 1  103             Tx   d 8 B6 B8 78 6F CE DA 58 38
 4.252710 2  104             Tx   d 8 9B 77 7D 75 C3 74 3A 31
 2.796659 1  103             Tx   d 8 09 6D 51 5E E5 8F 8D 48
 4.264431 2  104             Tx   d 8 FD F5 7F 29 67 72 58 32
 2.801755 1  103             Tx   d 8 5D 9F 4E 73 92 3B CA 37
 4.275436 2  104             Tx   d 8 05 EA DE 6F 67 EF DD 2E
 2.806857 1  103             Tx   d 8 18 A6 05 5C D9 D6 C2 75
 4.287384 2  104             Tx   d 8 00 7B 52 4B BA F6 C2 6B
 2.811926 1  103             Tx   d 8 5A 8F D6 1E 4F 52 41 5C
 4.299459 2  104             Tx   d 8 B9 4A B4 28 73 FF 89 78
 2.817023 1  103             Tx   d 8 EC BF 72 11 A6 43 55 4B
 4.311556 2  104             Tx   d 8 20 D8 D8 74 8B C3 F4 3B
 2.822105 1  103             Tx   d 8 D3 C1 08 5A E2 83 F6 66
 4.322122 2  104             Tx   d 8 CF AD E6 5D C8 F3 00 32
 2.827263 1  103             Tx   d 8 98 6E 68 24 37 55 83 07
 4.334385 2  104             Tx   d 8 44 A1 E3 72 54 F3 F0 26
 2.832460 1  103             Tx   d 8 2E F9 2D 40 FE CE 21 21
 4.344962 2  104             Tx   d 8 EB 3F 15 1E 7B D9 0A 74
 2.837707 1  103             Tx   d 8 16 02 7F 11 D9 A0 BB 4D
 4.356265 2  104             Tx   d 8 29 2C 60 44 D7 6E 24 5D
 2.842822 1  103             Tx   d 8 32 70 EE 78 8E 05 6C 4D
 4.368292 2  104             Tx   d 8 AA 01 13 1F 06 B7 7A 6B
 2.847898 1  103             Tx   d 8 B6 2D 2C 77 E8 70 7A 17
 4.378549 2  104             Tx   d 8 AC 42 B1 10 68 68 4C 05
 2.852988 1  103             Tx   d 8 89 81 92 3F 3F 64 55 3C
 4.390191 2  104             Tx   d 8 D3 6E 04 11 ED 9C 02 32
 2.858119 1  103             Tx   d 8 4C DB 40 58 7C D1 0B 4C
 4.402012 2  104             Tx   d 8 BD 59 F9 3A 1D AA E2 16
 2.863278 1  103             Tx   d 8 D2 8D 90 5C 38 A8 67 07
 4.412596 2  104             Tx   d 8 A6 1E C2 7B A5 64 73 0D
 2.868477 1  103             Tx   d 8 99 07 FD 7C 88 46 09 4C
 4.423526 2  104             Tx   d 8 87 B2 C6 5E 41 96 3F 71
 2.873718 1  103             Tx   d 8 07 83 C0 3F A3 74 4E 5B
 4.434620 2  104             Tx   d 8 68 D9 AD 3E 84 A8 46 08
 2.878894 1  103             Tx   d 8 6E D6 96 14 64 22 0F 33
 4.445760 2  104             Tx   d 8 A8 08 98 23 6D C3 8C 2E
 2.883993 1  103             Tx   d 8 35 B0 18 13 86 7C 9C 70
 4.456939 2  104             Tx   d 8 EB 97 24 37 A8 83 EA 6E
 2.889121 1  103             Tx   d 8 3D F9 D1 28 8F 3F EF 31
 4.467900 2  104             Tx   d 8 27 BA 4F 1A A4 E2 D8 5F
 2.894254 1  103             Tx   d 8 D5 CE DD 4C 29 B9 44 3A
 4.478602 2  104             Tx   d 8 1B 83 74 67 47 92 28 0F
 2.899392 1  103             Tx   d 8 36 83 44 7D A8 90 E6 26
 4.488975 2  104             Tx   d 8 2F A6 CD 1B EB 30 5B 45
 2.904612 1  103             Tx   d 8 0C 3D 3B 21 CE F1 AC 21
 4.499208 2  104             Tx   d 8 10 86 29 41 73 47 B1 0E
 2.909737 1  103             Tx   d 8 DF E5 69 2E 3A 36 69 61
 4.509481 2  104             Tx   d 8 3F 24 4C 6C FB C5 3E 5F
 2.914857 1  103             Tx   d 8 CD C0 CE 42 F5 E7 E8 3F
 4.519943 2  104             Tx   d 8 EE 20 BC 02 69 50 AC 30
 2.919950 1  103             Tx   d 8 13 D7 24 2F FF 30 BD 3B
 4.530027 2  104             Tx   d 8 D2 34 63 3C 98 22 CF 21
 2.925060 1  103             Tx   d 8 83 ED 54 0D C9 04 51 26
 4.540546 2  104             Tx   d 8 6F 07 27 1C 7F 77 14 4D
 2.930137 1  103             Tx   d 8 E7 A1 37 53 0C 6F E7 4C
 4.550838 2  104             Tx   d 8 00 8B 1B 27 43 76 2B 2D
 2.935333 1  103             Tx   d 8 09 69 A6 62 33 7D 78 2B
 4.561439 2  104             Tx   d 8 6C 14 17 7F BE E4 14 62
 2.940531 1  103             Tx   d 8 89 40 F3 18 DB F6 36 3F
 4.571613 2  104             Tx   d 8 60 20 0E 44 12 33 D9 7A
 2.945774 1  103             Tx   d 8 6C 25 E0 32 22 48 F0 15
 4.581756 2  104             Tx   d 8 63 49 88 6F E7 D2 D4 22
 2.950880 1  103             Tx   d 8 63 3D 40 0B 73 A8 A0 72
 4.592453 2  104             Tx   d 8 54 C9 18 6C CB 22 36 2E
 2.957216 1  103             Tx   d 8 C5 BC 3E 71 D1 13 D7 1F
 4.602798 2  104             Tx   d 8 6B 7B 1B 2B FC D1 B0 0F
 2.962626 1  103             Tx   d 8 D7 CA AF 25 FA 6C 57 04
 4.612942 2  104             Tx   d 8 38 E6 C2 5C 56 13 40 62
 2.968973 1  103             Tx   d 8 57 90 73 10 15 C4 81 4E
 4.623166 2  104             Tx   d 8 A5 55 9B 7E 5F A0 12 77
 2.974636 1  103             Tx   d 8 8A AC 46 36 2D 5F 51 5D
 4.633775 2  104             Tx   d 8 FA F5 18 42 C0 D8 0F 66
 2.980974 1  103             Tx   d 8 3E 7D C6 08 C0 2F 8B 33
 4.645406 2  104             Tx   d 8 A6 32 3B 06 29 9C E6 5D
 2.986544 1  103             Tx   d 8 D5 EF 37 04 4A BA 01 2A
 4.656918 2  104             Tx   d 8 AB 09 6B 2B B6 B8 64 47
 2.992882 1  103             Tx   d 8 8E 21 38 55 B5 D5 A1 32
 4.668201 2  104             Tx   d 8 9C E3 97 6C EB 2D B7 17
 2.998040 1  103             Tx   d 8 85 F0 6A 0B 5B E2 06 18
 4.679128 2  104             Tx   d 8 B1 7E A3 26 8A 04 54 6F
 3.004367 1  103             Tx   d 8 AA BD 8A 72 98 C7 8F 3A
 4.689706 2  104             Tx   d 8 54 7E 63 48 84 B3 06 63
 3.009629 1  103             Tx   d 8 5A 13 C4 53 2E AB DF 7F
 4.699949 2  104             Tx   d 8 23 27 23 11 C3 85 8A 64
 3.015965 1  103             Tx   d 8 62 CC E0 60 42 B5 FB 26
 4.710917 2  104             Tx   d 8 03 2B 1B 30 23 B2 3E 38
 3.021108 1  103             Tx   d 8 3A 1A C7 4C 6B 35 87 43
 4.721610 2  104             Tx   d 8 06 FC B5 11 6F 3F 32 2F
 3.027446 1  103             Tx   d 8 75 32 74 52 C3 5A BA 65
 4.731996 2  104             Tx   d 8 E1 96 53 1A 67 1C C4 55
 3.032528 1  103             Tx   d 8 46 2C BE 02 E1 57 54 05
 4.742218 2  104             Tx   d 8 82 72 0B 2A 44 E0 DB 09
 3.038866 1  103             Tx   d 8 E6 A2 AA 7B A9 69 FE 0D
 4.752489 2  104             Tx   d 8 4E EF 98 78 D6 3B 24 16
 3.044483 1  103             Tx   d 8 54 00 F5 77 AB 5F E9 6C
 4.762707 2  104             Tx   d 8 0F 03 12 38 BA 6A B4 23
 3.049670 1  103             Tx   d 8 7B 7D D5 2D 2C CB A4 1D
 4.772973 2  104             Tx   d 8 D2 0D D5 25 47 E9 D4 14
 3.055267 1  103             Tx   d 8 A6 CC 40 71 D2 0D 49 3E
 4.783054 2  104             Tx   d 8 10 7E F4 05 77 63 70 24
 3.061610 1  103             Tx   d 8 41 8F 26 6C 30 79 87 27
 4.793159 2  104             Tx   d 8 A6 89 E7 0B 0B 74 0D 48
 3.067535 1  103             Tx   d 8 FF 6C 9A 1B 7F 0C ED 74
 4.804316 2  104             Tx   d 8 38 3C 80 0A 4D BC 22 12
 3.073373 1  103             Tx   d 8 F0 A8 12 5B D5 5C D2 1F
 4.814424 2  104             Tx   d 8 34 10 F4 25 E3 45 EB 35
 3.078583 1  103             Tx   d 8 CA C6 EE 1E 7E CA 4A 30
 4.825594 2  104             Tx   d 8 03 75 87 59 D1 F3 8B 12
 3.083737 1  103             Tx   d 8 8A 32 74 52 4F B7 59 2A
 4.835799 2  104             Tx   d 8 CE 73 A2 4D B5 F3 2A 00
 3.088905 1  103             Tx   d 8 DA AC 51 48 34 F0 FE 44
 4.846331 2  104             Tx   d 8 5B F8 DF 01 22 F2 05 16
 3.093992 1  103             Tx   d 8 E7 7E E9 64 34 C0 15 1C
 4.857095 2  104             Tx   d 8 39 A7 31 63 7E 1F 03 13
 3.099103 1  103             Tx   d 8 62 9B DE 44 49 4B CA 45
 4.867834 2  104             Tx   d 8 E6 77 90 7A 3C D2 4C 13
 3.104191 1  103             Tx   d 8 76 75 11 43 9D B5 A5 11
 4.878473 2  104             Tx   d 8 A2 D1 41 4B EC 73 46 0C
 3.109369 1  103             Tx   d 8 B4 80 51 09 EC A7 85 15
 4.889049 2  104             Tx   d 8 AB 11 7F 42 83 68 95 65
 3.114458 1  103             Tx   d 8 60 10 60 77 FA AC 0F 0C
 4.899604 2  104             Tx   d 8 53 90 0A 62 2D 84 8A 6C
 3.119686 1  103             Tx   d 8 CD FF D9 1A 46 B3 0A 73
 4.910089 2  104             Tx   d 8 C8 48 71 6F A2 7F A3 5A
 3.124884 1  103             Tx   d 8 A4 16 0E 1A 22 00 CF 12
 4.920584 2  104             Tx   d 8 03 C0 AE 02 D7 4B 83 27
 3.129991 1  103             Tx   d 8 F2 12 F4 5F 1F 94 E3 47
 4.930763 2  104             Tx   d 8 5C EA 57 7E D6 CD 83 28
 3.135223 1  103             Tx   d 8 4E CB 73 30 98 DF 34 51
 4.940869 2  104             Tx   d 8 1F 35 58 3C 6C 68 4C 04
 3.140615 1  103             Tx   d 8 F1 A1 2C 06 8F 5A 9A 1C
 4.951239 2  104             Tx   d 8 4D 31 F4 4C C5 BE 3F 48
 3.145948 1  103             Tx   d 8 C8 58 BC 78 F1 0E C7 21
 4.961746 2  104             Tx   d 8 77 DC 59 4C 85 6D 74 57
 3.161427 1  103             Tx   d 8 36 CC 19 04 50 9E 0D 14
 4.972540 2  104             Tx   d 8 12 7B 62 5A AC EC 4D 72
 3.187780 1  103             Tx   d 8 84 DF 90 2F 0D 30 D5 0E
 4.983220 2  104             Tx   d 8 69 B3 5F 0D 16 F0 E9 33
 3.209351 1  103             Tx   d 8 97 56 C1 6E 1D B6 EF 79
 4.993700 2  104             Tx   d 8 7D E0 D9 04 37 27 02 5B
 3.231291 1  103             Tx   d 8 AD 38 CA 24 82 E3 56 4D
 5.003932 2  104             Tx   d 8 CB E3 14 34 D8 D8 B9 06
 3.252388 1  103             Tx   d 8 7C 35 35 68 47 D1 7D 53
 5.014434 2  104             Tx   d 8 5A 19 08 71 04 8B 46 17
 3.279356 1  103             Tx   d 8 97 CA EA 47 FE 16 94 47
 5.024639 2  104             Tx   d 8 57 F8 BC 19 40 91 98 6B
 3.301642 1  103             Tx   d 8 15 43 4A 27 94 B9 FA 26
 5.034878 2  104             Tx   d 8 40 5D 93 2A F9 C9 FE 64
 3.323646 1  103             Tx   d 8 50 99 8E 07 66 B4 3D 2E
 5.045367 2  104             Tx   d 8 2C 05 DF 77 EB 6E 12 6D
 3.344862 1  103             Tx   d 8 EE F8 40 57 89 A8 E6 46
 5.056469 2  104             Tx   d 8 7C 32 94 4A 80 95 E9 59
 3.372140 1  103             Tx   d 8 95 BB B1 11 04 6B D5 2D
 5.067788 2  104             Tx   d 8 19 F3 9C 59 44 7B 05 3A
 3.394197 1  103             Tx   d 8 F6 78 B8 3C 19 41 5E 7F
 5.078496 2  104             Tx   d 8 22 15 8D 34 1C B3 4B 5C
 3.415219 1  103             Tx   d 8 EA 23 4D 4E 51 7B 41 22
 5.089128 2  104             Tx   d 8 1C C7 88 61 7E FF E4 32
 3.436571 1  103             Tx   d 8 97 C7 94 51 0B FD 91 52
 5.099479 2  104             Tx   d 8 F2 80 CF 04 3B FC E0 1D
 3.459222 1  103             Tx   d 8 E9 A4 5B 47 A6 1D 14 3F
 5.109743 2  104             Tx   d 8 EA 67 31 37 40 B2 C3 51
 3.486488 1  103             Tx   d 8 0B 6C 94 42 67 99 61 17
 5.120420 2  104             Tx   d 8 00 BB 20 66 62 44 8B 03
 3.508675 1  103             Tx   d 8 98 47 46 15 8F 38 AF 41
 5.131519 2  104             Tx   d 8 C5 1F 38 29 13 36 83 40
 3.531804 1  103             Tx   d 8 A0 4A 8A 10 50 09 E7 54
 5.142701 2  104             Tx   d 8 0E 31 D9 75 2E D3 97 36
 3.556470 1  103             Tx   d 8 7C 23 D5 77 A8 E6 10 75
 5.153502 2  104             Tx   d 8 29 26 6D 74 8B 11 B3 7A
 3.580010 1  103             Tx   d 8 08 CE 7F 2D 81 DC 06 04
 5.164443 2  104             Tx   d 8 66 FA 99 11 F4 09 82 28
 3.601497 1  103             Tx   d 8 83 CF F7 2C 17 46 00 20
 5.174913 2  104             Tx   d 8 63 EA 6C 01 C0 13 A2 02
 3.635821 1  103             Tx   d 8 D8 97 BA 60 B4 8A 3C 58
 5.185297 2  104             Tx   d 8 F8 94 C8 3F BA E2 29 1B
 3.653775 1  103             Tx   d 8 DB 3A 87 62 0F A8 C9 17
 5.195589 2  104             Tx   d 8 00 A5 3A 6E 38 F2 5B 6A
 3.678230 1  103             Tx   d 8 C8 35 19 2F 49 F4 E8 3C
 5.205833 2  104             Tx   d 8 B3 AC 28 00 2C AA 19 66
 3.697257 1  103             Tx   d 8 15 91 A4 12 89 EA 71 52
 5.216634 2  104             Tx   d 8 23 61 6E 57 30 DF BC 4A
 3.721600 1  103             Tx   d 8 03 7A 48 02 F7 D3 21 3B
 5.227441 2  104             Tx   d 8 AC 3F 03 40 3C 54 0B 31
 3.746969 1  103             Tx   d 8 65 22 23 09 0B 08 1A 1E
 5.238046 2  104             Tx   d 8 74 5A C2 04 CE 54 90 74
 3.772365 1  103             Tx   d 8 DF EC 35 2D B6 CA AD 1E
 5.248494 2  104             Tx   d 8 59 07 57 0D 90 21 4B 66
 3.796020 1  103             Tx   d 8 FC DB EC 7F F9 66 D6 65
 5.259069 2  104             Tx   d 8 4C 54 75 27 4B 88 26 12
 3.816598 1  103             Tx   d 8 3E A3 0A 7F F5 64 AA 0E
 5.269428 2  104             Tx   d 8 CB 1D 2C 04 37 BC A6 5E
 3.837255 1  103             Tx   d 8 58 2B A3 4F 0A 4A 8A 6B
 5.279713 2  104             Tx   d 8 8B 3A EA 63 CC D8 4C 6A
 3.858869 1  103             Tx   d 8 69 60 74 4E 89 C9 C6 3F
 5.289848 2  104             Tx   d 8 99 00 32 62 51 5A 22 0D
 3.876887 1  103             Tx   d 8 E6 1C BD 03 F9 96 2E 6D
 5.301736 2  104             Tx   d 8 DF 0E D0 2A A7 31 0B 58
 3.901486 1  103             Tx   d 8 58 5B 74 38 DC 05 56 4B
 5.312053 2  104             Tx   d 8 7F 2D BA 43 08 35 3D 1F
 3.924635 1  103             Tx   d 8 CA DB 20 69 19 00 97 2F
 5.322371 2  104             Tx   d 8 32 43 BE 52 E5 27 54 55
 3.947092 1  103             Tx   d 8 7D 2A 48 7B AB D2 8D 27
 5.332457 2  104             Tx   d 8 FC 3E BF 47 95 2D 2B 54
 3.970048 1  103             Tx   d 8 BB 7A E8 54 D2 04 93 1D
 5.342564 2  104             Tx   d 8 A5 3B F6 57 F4 D3 87 07
 3.990835 1  103             Tx   d 8 80 61 15 2B 68 59 45 5D
 5.353338 2  104             Tx   d 8 50 10 55 6F A5 E0 30 46
 4.012784 1  103             Tx   d 8 90 FD 7D 39 C2 66 06 16
 5.363740 2  104             Tx   d 8 2C C6 E3 71 03 BD 7D 6F
 4.035637 1  103             Tx   d 8 59 26 EB 3E 03 7E 5B 4F
 5.373863 2  104             Tx   d 8 D2 8A 4A 2C 4F 27 52 49
 4.053763 1  103             Tx   d 8 D0 D4 50 51 81 DC FD 0B
 5.384538 2  104             Tx   d 8 33 9C 3A 3A 7E CA 4D 6C
 4.072086 1  103             Tx   d 8 79 29 84 44 7C 42 EB 1D
 5.395129 2  104             Tx   d 8 8C 7B 5D 7A A8 F6 FC 3E
 4.097193 1  103             Tx   d 8 2E 0A 0A 49 3F 37 16 52
 5.405609 2  104             Tx   d 8 4D 1F DE 60 E5 82 B4 07
 4.121288 1  103             Tx   d 8 E9 FE 92 11 FC 52 9D 71
 5.415813 2  104             Tx   d 8 38 18 48 25 99 73 53 08
 4.140313 1  103             Tx   d 8 64 94 BD 16 C4 32 0E 78
 5.425947 2  104             Tx   d 8 30 0B DB 19 04 36 74 29
 4.164802 1  103             Tx   d 8 0A 95 60 73 84 60 57 11
 5.436361 2  104             Tx   d 8 D0 2F FA 66 BC 45 C5 7D
 4.187423 1  103             Tx   d 8 9D 81 E6 41 F2 8F BD 10
 5.446685 2  104             Tx   d 8 D0 0E C1 13 69 30 2C 49
 4.208591 1  103             Tx   d 8 74 EA EC 76 93 F5 A0 09
 5.456867 2  104             Tx   d 8 0D A0 E7 0A AF 1D 91 3E
 4.235144 1  103             Tx   d 8 6E 18 EB 58 74 FB AF 5E
 5.467187 2  104             Tx   d 8 10 62 37 21 8C CD A1 4E
 4.253946 1  103             Tx   d 8 FD AF 15 37 7F FA 2E 00
 5.477592 2  104             Tx   d 8 B7 52 CE 5D 42 A5 F5 73
 4.280313 1  103             Tx   d 8 32 84 D3 5A 84 28 7B 1F
 5.488644 2  104             Tx   d 8 72 F5 F5 23 B3 91 8D 25
 4.301862 1  103             Tx   d 8 81 13 28 38 45 8B A1 36
 5.499309 2  104             Tx   d 8 D8 D2 20 48 17 31 EC 7B
 4.329152 1  103             Tx   d 8 67 A2 27 26 29 21 7B 6D
 5.511903 2  104             Tx   d 8 A7 65 15 2D 28 E3 75 37
 4.350137 1  103             Tx   d 8 A3 B0 7A 03 16 69 A9 46
 5.524521 2  104             Tx   d 8 BD 11 1D 42 D3 2B F9 1E
 4.371712 1  103             Tx   d 8 A2 0A 6F 13 F0 27 A6 7E
 5.536649 2  104             Tx   d 8 2B A0 F3 26 8F 9C 67 6E
 4.399313 1  103             Tx   d 8 12 7A BC 71 FC CD C4 57
 5.546889 2  104             Tx   d 8 22 53 4B 68 5F 3C 2E 61
 4.423525 1  103             Tx   d 8 8F 88 DF 51 52 FE E2 59
 5.557405 2  104             Tx   d 8 0D 67 B5 5A AE CE A8 62
 4.445755 1  103             Tx   d 8 0C D7 3A 70 D0 DA 50 71
 5.567743 2  104             Tx   d 8 07 33 2B 20 5A 86 93 3B
 4.469400 1  103             Tx   d 8 30 F2 49 0C 48 37 CA 0D
 5.578152 2  104             Tx   d 8 93 51 5D 6A 3F 4B 73 45
 4.493071 1  103             Tx   d 8 90 EF 4E 12 22 CD 68 4F
 5.588462 2  104             Tx   d 8 F4 F9 E6 43 C4 5C 38 04
 4.510748 1  103             Tx   d 8 4D 25 2B 68 DD 8B EA 15
 5.598552 2  104             Tx   d 8 43 81 E7 6E C4 29 E1 2A
 4.534125 1  103             Tx   d 8 C9 2F C9 32 E0 76 00 16
 5.609201 2  104             Tx   d 8 80 A2 FD 01 13 90 A8 02
 4.558658 1  103             Tx   d 8 66 6B F7 01 94 05 55 64
 5.619855 2  104             Tx   d 8 2E 5A 0D 74 8D 42 E5 0C
 4.576846 1  103             Tx   d 8 1A A6 7D 10 78 37 20 18
 5.630986 2  104             Tx   d 8 C2 AD 39 41 3E BC 44 15
 4.604615 1  103             Tx   d 8 C5 93 7E 41 80 43 C8 6C
 5.642163 2  104             Tx   d 8 19 10 87 5B 79 00 08 1F
 4.626210 1  103             Tx   d 8 09 CC 16 1F 7F 34 93 05
 5.653128 2  104             Tx   d 8 81 61 3A 09 8B 05 7D 7F
 4.649545 1  103             Tx   d 8 99 7B 11 02 FD FC 2D 09
 5.664047 2  104             Tx   d 8 2C 92 95 44 59 34 5B 51
 4.677607 1  103             Tx   d 8 7A 95 19 68 E6 BF 1F 48
 5.674727 2  104             Tx   d 8 A3 36 69 7B D3 F7 AA 71
 4.695953 1  103             Tx   d 8 8B 9A DE 39 50 20 86 49
 5.684890 2  104             Tx   d 8 81 17 D1 08 60 48 86 3D
 4.719792 1  103             Tx   d 8 E3 93 86 33 1B 5A C4 60
 5.694977 2  104             Tx   d 8 A6 23 A4 10 AC B7 C4 2F
 4.743899 1  103             Tx   d 8 44 67 4F 77 7F 1A 69 22
 5.706676 2  104             Tx   d 8 EF E4 ED 2B C9 76 EF 78
 4.767984 1  103             Tx   d 8 63 2C 26 64 CD 0E 0F 4C
 5.719292 2  104             Tx   d 8 0B F4 F2 10 FC 4B A3 06
 4.785671 1  103             Tx   d 8 87 3B A6 2E 63 00 04 53
 5.730028 2  104             Tx   d 8 77 45 98 5B 12 27 1E 31
 4.804681 1  103             Tx   d 8 70 82 25 21 FB 28 2B 7F
 5.742222 2  104             Tx   d 8 57 D2 36 42 0B 97 F5 45
 4.828587 1  103             Tx   d 8 FB 2A 84 14 C9 D4 B0 52
 5.754345 2  104             Tx   d 8 52 72 91 76 4B CC 1D 06
 4.852765 1  103             Tx   d 8 FD DA 11 44 5F 2D B9 22
 5.766627 2  104             Tx   d 8 CF F3 2D 4A 95 F3 78 65
 4.876072 1  103             Tx   d 8 38 84 75 69 FB 2C 85 7F
 5.778730 2  104             Tx   d 8 0F F6 FE 30 4F 96 2B 4C
 4.894420 1  103             Tx   d 8 3A 82 D6 73 77 D2 DC 13
 5.790625 2  104             Tx   d 8 A9 83 21 68 3D 50 0C 25
 4.918466 1  103             Tx   d 8 32 D3 94 7C 28 69 EF 0E
 5.802366 2  104             Tx   d 8 DC D8 10 59 6B 31 5B 29
 4.941718 1  103             Tx   d 8 BA 13 72 46 82 B1 81 18
 5.812471 2  104             Tx   d 8 7C 0C 51 3A F5 E8 97 34
 4.964256 1  103             Tx   d 8 05 BB F5 72 83 9F F3 71
 5.822820 2  104             Tx   d 8 E5 31 63 48 FD 6D 8B 43
 4.987132 1  103             Tx   d 8 CF F9 B1 17 3A 2E 26 4B
 5.834229 2  104             Tx   d 8 81 EE 14 34 11 C4 F8 0C
 5.010275 1  103             Tx   d 8 0B 0F 85 48 3E FA 62 42
 5.846179 2  104             Tx   d 8 56 A2 E6 14 24 25 7E 2F
 5.033752 1  103             Tx   d 8 92 7B 68 2E BA 96 0E 39
 5.858040 2  104             Tx   d 8 E5 BB A3 7E D7 B9 B7 1D
 5.056857 1  103             Tx   d 8 4C E9 31 34 1B B6 D8 11
 5.869920 2  104             Tx   d 8 84 6D 04 6D 8B DF 47 0F
 5.072954 1  103             Tx   d 8 87 3B 9F 16 42 D7 5F 2D
 5.881390 2  104             Tx   d 8 83 71 7C 4D 73 52 F2 18
 5.097086 1  103             Tx   d 8 5B 57 35 0C 2A 58 E4 57
 5.892618 2  104             Tx   d 8 54 56 37 08 8F 65 6F 5E
 5.120214 1  103             Tx   d 8 54 0B 39 32 88 90 FB 11
 5.902738 2  104             Tx   d 8 6F 9E 95 1F CC 9B CF 63
 5.143231 1  103             Tx   d 8 BA CD 2C 6C E6 6C 69 62
 5.912993 2  104             Tx   d 8 A1 8C 8D 0F C6 70 CC 61
 5.165607 1  103             Tx   d 8 98 0E BF 56 2B B7 10 00
 5.923133 2  104             Tx   d 8 D7 32 C5 29 F3 FE 1E 06
 5.189188 1  103             Tx   d 8 40 3E 93 61 77 3E DF 11
 5.934395 2  104             Tx   d 8 11 3D EA 67 A6 26 F3 73
 5.216650 1  103             Tx   d 8 7B 1B EF 19 DB 99 F4 76
 5.945404 2  104             Tx   d 8 89 F2 97 6B 21 33 E9 18
 5.239735 1  103             Tx   d 8 3B 37 32 58 2F CA 76 38
 5.956422 2  104             Tx   d 8 F5 BC 1E 40 32 76 B9 53
 5.257643 1  103             Tx   d 8 D3 7D 48 1B E0 60 4C 57
 5.967572 2  104             Tx   d 8 5E 83 F5 3D D1 95 2F 19
 5.281434 1  103             Tx   d 8 B4 EA C0 4C CD 1E 93 74
 5.978916 2  104             Tx   d 8 9D A7 14 7D DA 8F 46 78
 5.304822 1  103             Tx   d 8 14 54 CD 39 2D BE 62 10
 5.989937 2  104             Tx   d 8 C6 7E C7 4D 82 D9 77 45
 5.327898 1  103             Tx   d 8 04 A7 85 4A 3B 00 F6 33
 6.000581 2  104             Tx   d 8 D7 FD D1 3B 47 6D DC 01
 5.349036 1  103             Tx   d 8 37 58 D9 6F 38 F9 F6 1D
 6.012412 2  104             Tx   d 8 94 9D 70 52 2D A0 B8 50
 5.372512 1  103             Tx   d 8 E2 5D 03 15 78 4A B1 72
 6.024542 2  104             Tx   d 8 6B 92 5A 31 79 59 14 51
 5.396246 1  103             Tx   d 8 12 B2 ED 74 E6 CA F0 00
 6.035674 2  104             Tx   d 8 04 5A 70 6E EF FF 5E 1E
 5.420481 1  103             Tx   d 8 E8 72 F3 04 01 AC 20 0C
 6.047834 2  104             Tx   d 8 04 39 5C 60 88 CB EC 3B
 5.438107 1  103             Tx   d 8 80 7E 97 3E 8F FB 86 14
 6.060030 2  104             Tx   d 8 62 52 51 37 59 8F 93 68
 5.471581 1  103             Tx   d 8 26 2C A2 0D 86 37 2A 52
 6.070367 2  104             Tx   d 8 17 31 5C 1A D2 F0 E6 56
 5.493965 1  103             Tx   d 8 F3 7F 51 48 7C CA 41 09
 6.081214 2  104             Tx   d 8 25 2B 63 4C B8 BD E9 29
 5.553190 1  103             Tx   d 8 9C 47 AF 66 E9 A6 C1 27
 6.091535 2  104             Tx   d 8 98 61 B3 38 FC 5D 28 76
 5.569980 1  103             Tx   d 8 F2 98 AA 3D F6 97 9D 6C
 6.101781 2  104             Tx   d 8 AC BC 08 30 AA 9E 9D 20
 5.592453 1  103             Tx   d 8 A2 A6 B1 2C 6A 9F F5 23
 6.113649 2  104             Tx   d 8 A2 84 1B 6A 35 AF A0 1B
 5.620639 1  103             Tx   d 8 FC 41 71 5C C1 6C 32 69
 6.125628 2  104             Tx   d 8 CB D1 86 39 97 41 3A 2A
 5.642515 1  103             Tx   d 8 DE F8 41 21 33 30 88 46
 6.137618 2  104             Tx   d 8 67 25 5A 6F 29 55 7C 77
 5.660774 1  103             Tx   d 8 44 6F CB 07 E3 1B AA 62
 6.149662 2  104             Tx   d 8 68 D7 69 43 04 CD 6E 6C
 5.683671 1  103             Tx   d 8 84 19 7D 05 54 55 14 35
 6.160954 2  104             Tx   d 8 04 E5 C2 6F 2E 56 31 11
 5.713055 1  103             Tx   d 8 05 FC 72 29 F4 D9 0E 47
 6.171641 2  104             Tx   d 8 87 A6 E6 31 DB E2 94 2B
 5.735253 1  103             Tx   d 8 C2 0C 71 2B B8 DA 36 7A
 6.181766 2  104             Tx   d 8 76 C3 0D 13 1B 44 57 04
 5.760178 1  103             Tx   d 8 CA D5 1E 61 60 E0 C0 1B
 6.192138 2  104             Tx   d 8 09 83 4D 7C E1 55 68 44
 5.783497 1  103             Tx   d 8 97 2E FC 3F 5C 58 59 12
 6.204419 2  104             Tx   d 8 94 9D 6B 55 0D DD BD 6A
 5.813027 1  103             Tx   d 8 E8 28 31 55 CC 86 8E 55
 6.214762 2  104             Tx   d 8 D1 55 C7 62 98 D6 C7 35
 5.836570 1  103             Tx   d 8 B6 D8 D0 4C 04 52 80 01
 6.226211 2  104             Tx   d 8 95 A8 AA 26 33 A8 18 1A
 5.864318 1  103             Tx   d 8 51 3C BA 02 B2 60 26 65
 6.237137 2  104             Tx   d 8 F1 65 5B 1E AC D9 06 41
 5.886294 1  103             Tx   d 8 D0 09 92 12 8B 4F 9F 4D
 6.247426 2  104             Tx   d 8 05 99 FF 70 16 91 BE 6A
 5.916781 1  103             Tx   d 8 20 F4 6F 30 FF 85 FA 1E
 6.258134 2  104             Tx   d 8 65 97 F0 6A 9E FA B2 29
 5.940759 1  103             Tx   d 8 94 3A 4F 3C 65 8B 31 7D
 6.269955 2  104             Tx   d 8 12 EF E6 60 11 54 F9 1A
 5.962212 1  103             Tx   d 8 F4 79 21 03 6C 4E 22 7E
 6.280271 2  104             Tx   d 8 48 99 50 4A B4 73 02 4B
 5.985657 1  103             Tx   d 8 84 D0 4C 49 EE 13 17 55
 6.291300 2  104             Tx   d 8 46 03 9A 36 13 6B D7 03
 6.016397 1  103             Tx   d 8 CC EA 03 29 EF 2A 3D 49
 6.301699 2  104             Tx   d 8 4B B5 3C 75 AD 28 F4 25
 6.041780 1  103             Tx   d 8 D5 52 9D 63 FC DD 84 5F
 6.312665 2  104             Tx   d 8 3C C0 53 7B B3 8C A6 38
 6.066678 1  103             Tx   d 8 7F CF 58 3F BB 25 9E 30
 6.324430 2  104             Tx   d 8 B1 F5 62 12 40 A5 16 6B
 6.090242 1  103             Tx   d 8 78 11 AB 6A C0 DC 60 1D
 6.336169 2  104             Tx   d 8 E2 E2 D7 49 38 9C 49 44
 6.120698 1  103             Tx   d 8 3D 8C 84 0A 70 F8 9E 62
 6.347603 2  104             Tx   d 8 1C 88 AB 16 58 A6 E5 5C
 6.139797 1  103             Tx   d 8 58 9C 97 7F 96 94 A5 1A
 6.358262 2  104             Tx   d 8 53 E0 A0 48 25 0B F9 12
 6.170442 1  103             Tx   d 8 9E 52 4F 26 AD 28 33 37
 6.369624 2  104             Tx   d 8 39 FC 4D 21 E7 7D 0C 1E
 6.194498 1  103             Tx   d 8 FE BC 4C 32 FF DC E1 2E
 6.379910 2  104             Tx   d 8 32 E8 B6 7D 0A 52 15 04
 6.224389 1  103             Tx   d 8 1D 0D A1 4B FE FE 42 13
 6.390181 2  104             Tx   d 8 80 54 D4 53 C8 90 61 24
 6.247699 1  103             Tx   d 8 59 6D F0 77 7D 69 B7 57
 6.401712 2  104             Tx   d 8 3E FA 2D 1E 71 BA 2F 72
 6.277136 1  103             Tx   d 8 6C FA 42 44 C9 65 AB 75
 6.411947 2  104             Tx   d 8 74 6A 68 65 43 93 2D 0F
 6.305635 1  103             Tx   d 8 0C 54 25 71 D9 3B 77 0E
 6.422096 2  104             Tx   d 8 88 4B EE 5C D9 01 59 50
 6.329074 1  103             Tx   d 8 87 51 DE 1A 88 07 DC 7C
 6.432944 2  104             Tx   d 8 E1 8D E0 38 9A 3A D5 3D
 6.351856 1  103             Tx   d 8 77 EF 5C 00 47 E1 47 2A
 6.443543 2  104             Tx   d 8 EA 55 52 6B 29 27 31 03
 6.380086 1  103             Tx   d 8 ED 0E AA 52 A0 8A B5 0E
 6.453638 2  104             Tx   d 8 4F AE D7 08 30 59 EC 21
 6.406551 1  103             Tx   d 8 42 4E B1 4F A8 E0 04 26
 6.464556 2  104             Tx   d 8 3C 92 08 07 9A 63 14 7E
 6.432522 1  103             Tx   d 8 3D 25 8B 61 FE F6 D3 3C
 6.474791 2  104             Tx   d 8 DD 81 E0 47 79 52 5C 02
 6.455741 1  103             Tx   d 8 A8 3F 64 67 82 1B 8E 05
 6.485634 2  104             Tx   d 8 4E F0 BA 36 8F 77 43 5A
 6.484209 1  103             Tx   d 8 29 29 49 45 00 CA F6 6C
 6.496267 2  104             Tx   d 8 B9 F7 72 6D 30 D3 92 00
 6.507915 1  103             Tx   d 8 5A 07 62 2D DF 75 E8 7C
 6.527822 2  104             Tx   d 8 FA 8A 17 17 C1 75 C6 7E
 6.534565 1  103             Tx   d 8 F6 70 F4 43 36 A0 22 3B
 6.549478 2  104             Tx   d 8 CC C7 DB 02 82 C6 0E 59
 6.557037 1  103             Tx   d 8 E1 8F 28 32 8E 58 C0 0B
 6.570509 2  104             Tx   d 8 F4 80 3E 4B 69 6E 98 1E
 6.585559 1  103             Tx   d 8 49 8B 2B 14 84 42 DC 0E
 6.602183 2  104             Tx   d 8 16 07 02 66 2D C6 43 5A
 6.608362 1  103             Tx   d 8 B9 88 15 73 62 A7 13 52
 6.624037 2  104             Tx   d 8 5E 1F 30 7C 95 9C 51 73
 6.630179 1  103             Tx   d 8 31 F6 1A 20 34 89 F4 40
 6.646110 2  104             Tx   d 8 0E EF AD 75 4E 09 A9 23
 6.652694 1  103             Tx   d 8 48 EE 77 04 7B 46 1E 3E
 6.668064 2  104             Tx   d 8 7E DC 3B 24 92 2C E1 3C
 6.677005 1  103             Tx   d 8 80 97 7D 63 FD BF 7C 2A
 6.689713 2  104             Tx   d 8 AD 20 0F 24 97 F1 56 7E
 6.698606 1  103             Tx   d 8 46 C7 C5 7B 29 6D 0D 29
 6.710146 2  104             Tx   d 8 C4 64 25 13 93 93 56 03
 6.726342 1  103             Tx   d 8 53 9E 6C 43 28 2F 0E 1E
 6.742841 2  104             Tx   d 8 23 D7 ED 6A EB AA 97 54
 6.753650 1  103             Tx   d 8 9C 23 F6 02 48 4C 8C 0D
 6.764206 2  104             Tx   d 8 1A 8E AF 3D B8 AD C5 5B
 6.776817 1  103             Tx   d 8 34 1D 1B 20 8C A3 F5 4D
 6.795932 2  104             Tx   d 8 07 35 4A 1D 1E 7C 8D 37
 6.799550 1  103             Tx   d 8 1E AC A8 56 37 6B E9 2B
 6.817055 2  104             Tx   d 8 6C 85 36 5B F7 E6 B7 12
 6.823138 1  103             Tx   d 8 FB F6 D8 6A 50 C4 E1 65
 6.840675 2  104             Tx   d 8 89 13 99 4F 7A 71 58 5D
 6.846166 1  103             Tx   d 8 B8 1A 6F 3D E5 3B 23 31
 6.862299 2  104             Tx   d 8 11 63 AF 5B B7 83 A1 01
 6.868375 1  103             Tx   d 8 34 20 4C 21 80 6E C2 04
 6.883360 2  104             Tx   d 8 4B 17 F8 04 18 20 4A 1F
 6.892364 1  103             Tx   d 8 14 69 F7 6C BD 60 DF 7F
 6.903998 2  104             Tx   d 8 3E FA E0 6C B2 07 18 26
 6.921466 1  103             Tx   d 8 2B 8C 88 7E AC 72 A5 40
 6.939326 2  104             Tx   d 8 98 4E 6A 3E AC 5C 1A 34
 6.945004 1  103             Tx   d 8 4A F9 A9 1F 3B BE 3D 10
 6.962963 2  104             Tx   d 8 9D 89 6D 64 67 73 E2 02
 6.968155 1  103             Tx   d 8 A6 68 64 62 32 32 DE 74
 6.988154 2  104             Tx   d 8 7D 97 DA 15 40 B3 CD 1B
 6.991406 1  103             Tx   d 8 96 0D ED 21 32 29 6F 25
 7.011366 2  104             Tx   d 8 2A 15 40 1B 4B 52 22 3B
 7.014774 1  103             Tx   d 8 EE A7 13 5D AB E0 84 72
 7.032456 2  104             Tx   d 8 82 86 CA 2E E5 76 FB 44
 7.043842 1  103             Tx   d 8 3A 10 42 18 D1 B8 3C 2D
 7.056463 2  104             Tx   d 8 BB 3E D0 33 1D 68 00 23
 7.072614 1  103             Tx   d 8 43 0C 98 4E B4 3E 87 7E
 7.087577 2  104             Tx   d 8 FD 76 12 15 D9 EC 48 4A
 7.095726 1  103             Tx   d 8 D2 17 65 03 E2 82 29 3F
 7.120058 2  104             Tx   d 8 C2 22 24 49 26 D1 80 6B
 7.126060 1  103             Tx   d 8 C8 C2 C5 0A 56 F6 FB 65
 7.143260 2  104             Tx   d 8 8E 44 63 6E C1 36 97 42
 7.150167 1  103             Tx   d 8 B1 5F AA 2F 9A CA B1 09
 7.164762 2  104             Tx   d 8 02 EA 64 5E EC 42 EC 71
 7.174591 1  103             Tx   d 8 68 33 25 20 3F 87 49 41
 7.185483 2  104             Tx   d 8 37 95 0E 2D 39 92 7D 79
 7.199766 1  103             Tx   d 8 B6 64 03 19 A4 73 64 4A
 7.216766 2  104             Tx   d 8 21 69 95 27 DA 47 49 72
 7.225276 1  103             Tx   d 8 D2 3A DE 3C 01 73 F1 20
 7.247294 2  104             Tx   d 8 5F 3E 83 6A 22 2E 56 76
 7.256947 1  103             Tx   d 8 19 EF 76 3F D0 BD 6D 43
 7.268676 2  104             Tx   d 8 38 F4 5F 0B DB D9 9E 73
 7.281702 1  103             Tx   d 8 F6 88 53 56 76 10 A5 29
 7.299730 2  104             Tx   d 8 5A C3 15 02 8F EF 82 4D
 7.305860 1  103             Tx   d 8 D0 F4 B1 46 DB 96 37 52
 7.321624 2  104             Tx   d 8 9A CB C0 51 E4 C7 01 41
 7.334822 1  103             Tx   d 8 70 D9 E2 1E A5 93 67 1A
 7.365560 2  104             Tx   d 8 61 BB 4C 03 57 E5 E8 19
 7.370752 1  103             Tx   d 8 73 95 E5 26 81 8F 25 77
 7.388343 2  104             Tx   d 8 31 2D 32 0C A7 35 DB 5B
 7.399134 1  103             Tx   d 8 1A CC D4 71 08 A8 C9 7B
 7.409857 2  104             Tx   d 8 E2 8F 48 7F 83 39 01 28
 7.422634 1  103             Tx   d 8 C4 6E 78 76 1D 8D DC 42
 7.444060 2  104             Tx   d 8 D2 B0 9D 60 B5 1E 16 6B
 7.450956 1  103             Tx   d 8 45 DE A0 7C C6 89 3C 6F
 7.465752 2  104             Tx   d 8 D6 C5 1B 0B 05 E1 C5 45
 7.478749 1  103             Tx   d 8 14 77 2E 6C B4 34 92 5F
 7.496713 2  104             Tx   d 8 9D 6B BA 2E F9 B2 A3 48
 7.501939 1  103             Tx   d 8 B3 67 29 77 C5 A6 98 69
 7.518971 2  104             Tx   d 8 A1 52 17 70 35 3D 63 1C
 7.530107 1  103             Tx   d 8 10 79 E8 16 F9 60 CB 79
 7.541273 2  104             Tx   d 8 8C 22 4C 36 77 76 DA 3E
 7.553462 1  103             Tx   d 8 15 E1 56 18 B6 6E C8 00
 7.564332 2  104             Tx   d 8 1E AC B5 1A A8 2D C4 5B
 7.576767 1  103             Tx   d 8 20 00 2D 66 8B 4C 86 78
 7.585778 2  104             Tx   d 8 2C 67 C5 03 8C 46 C0 13
 7.599909 1  103             Tx   d 8 7B 78 AB 22 E0 CD D9 41
 7.617048 2  104             Tx   d 8 62 06 EC 3B E8 6A 9C 46
 7.629766 1  103             Tx   d 8 FD D8 B6 66 8F 97 43 7B
 7.648463 2  104             Tx   d 8 F0 6F C0 34 77 F4 A0 5A
 7.654597 1  103             Tx   d 8 1A 40 D9 6F 43 54 92 27
 7.672412 2  104             Tx   d 8 71 A7 44 23 FA E2 8C 54
 7.679252 1  103             Tx   d 8 BC 91 CB 00 F0 D5 8C 53
 7.694195 2  104             Tx   d 8 30 20 F0 70 41 D4 EF 06
 7.695978 1  103             Tx   d 8 9A F9 09 58 D1 4C AA 2C
 7.714948 2  104             Tx   d 8 B8 4A CA 45 98 3A 06 25
 7.725912 1  103             Tx   d 8 07 DD 99 52 AC E4 3B 51
 7.736732 2  104             Tx   d 8 41 68 CA 00 8D C6 AE 19
 7.755904 1  103             Tx   d 8 B0 D9 59 00 69 F4 1F 70
 7.768153 2  104             Tx   d 8 1A B7 65 55 56 5A 5B 30
 7.779584 1  103             Tx   d 8 6E 54 BE 5E CE 8A 0B 19
 7.790092 2  104             Tx   d 8 3F C5 F7 76 35 29 6E 10
 7.809485 1  103             Tx   d 8 C0 B5 26 62 83 F2 DD 29
 7.821778 2  104             Tx   d 8 A4 05 FB 5D 32 16 A0 58
 7.828110 1  103             Tx   d 8 65 0B 08 52 DC C0 96 7E
 7.844084 2  104             Tx   d 8 2D F9 2C 2D 6D E3 70 3D
 7.852365 1  103             Tx   d 8 B5 A1 85 19 E4 F4 7D 10
 7.872584 2  104             Tx   d 8 AF B7 60 44 3B AF 5B 1B
 7.890597 1  103             Tx   d 8 86 42 5F 25 4A 10 AA 39
 7.905615 2  104             Tx   d 8 3E F9 AA 6A 15 52 2C 41
 7.920938 1  103             Tx   d 8 0B 47 C6 59 2F 6D 1C 24
 7.939159 2  104             Tx   d 8 E3 71 A4 66 9C D8 21 1B
 7.937094 1  103             Tx   d 8 BE 39 76 7A 91 30 D0 42
 7.949817 2  104             Tx   d 8 91 1C 8D 26 7B 7B BA 4F
 7.965090 1  103             Tx   d 8 17 B5 24 64 2D 60 1A 54
 7.973445 2  104             Tx   d 8 B0 A4 28 60 CC 1F CD 04
 7.982000 1  103             Tx   d 8 72 85 61 0C 6A 22 A4 3F
 7.995126 2  104             Tx   d 8 70 19 E7 11 A1 F8 D9 7E
 8.009745 1  103             Tx   d 8 66 C0 28 53 5D 9A 7F 46
 8.016097 2  104             Tx   d 8 B7 A5 19 00 45 48 FC 2A
 8.028789 1  103             Tx   d 8 9D C3 0D 10 A8 31 94 13
 8.048179 2  104             Tx   d 8 1A FC 10 30 BB BD 72 0E
 8.058279 1  103             Tx   d 8 EE 68 FA 68 8F 99 85 43
 8.070160 2  104             Tx   d 8 4F AC 86 3D 64 85 23 79
 8.077399 1  103             Tx   d 8 7F 94 15 2D C4 12 4C 44
 8.091212 2  104             Tx   d 8 79 B1 4C 5E 85 59 5B 77
 8.100614 1  103             Tx   d 8 D0 8A A2 70 88 99 42 0C
 8.111643 2  104             Tx   d 8 21 32 7D 12 3B 40 08 23
 8.125026 1  103             Tx   d 8 B2 5B 6E 6B 6F D1 FC 2A
 8.144048 2  104             Tx   d 8 05 E8 BD 43 08 15 6C 61
 8.148078 1  103             Tx   d 8 A3 E6 7A 50 50 47 B5 14
 8.164259 2  104             Tx   d 8 AA 0D 46 60 86 CB D2 17
 8.174539 1  103             Tx   d 8 D1 D3 49 39 E0 03 1B 2A
 8.185298 2  104             Tx   d 8 CB 13 CF 42 28 C2 0D 18
 8.196494 1  103             Tx   d 8 61 8B 8C 58 10 73 26 58
 8.209347 2  104             Tx   d 8 E7 4B 5B 1C 59 FC 25 25
 8.224327 1  103             Tx   d 8 F0 41 3E 6B A6 EF 60 31
 8.242554 2  104             Tx   d 8 72 5D F7 23 4A 1A 38 47
 8.247656 1  103             Tx   d 8 E4 E8 BE 39 73 7E C7 3C
 8.265716 2  104             Tx   d 8 CF 73 93 3E 92 64 A6 5A
 8.270573 1  103             Tx   d 8 05 BF 26 23 0B 90 15 43
 8.287351 2  104             Tx   d 8 CE A4 AE 7D 21 D1 E0 5B
 8.292463 1  103             Tx   d 8 91 2E BF 6D D4 DB A7 3B
 8.308774 2  104             Tx   d 8 AA 14 B5 50 2E 56 BF 53
 8.321707 1  103             Tx   d 8 E0 82 3D 71 65 99 DD 5D
 8.342366 2  104             Tx   d 8 9F 5C 8B 02 BC 47 85 01
 8.349758 1  103             Tx   d 8 12 DA 56 4E 3F 7E 61 28
 8.363962 2  104             Tx   d 8 E4 09 93 19 2C 9D 62 55
 8.370791 1  103             Tx   d 8 9E 2B 09 06 2A 17 3E 0D
 8.384758 2  104             Tx   d 8 86 99 88 7A 01 19 9E 6B
 8.400160 1  103             Tx   d 8 A6 65 B0 48 DB B0 F2 2A
 8.416507 2  104             Tx   d 8 18 96 59 57 61 39 AB 21
 8.422367 1  103             Tx   d 8 DC C6 F3 19 EB 37 BD 7E
 8.437606 2  104             Tx   d 8 F3 9D 51 7C 7E CC 32 4E
 8.449685 1  103             Tx   d 8 DF B1 19 3B C4 AD 9D 1F
 8.458865 2  104             Tx   d 8 9F 9D 13 2A 01 1E FF 76
 8.472414 1  103             Tx   d 8 4D FB 7F 2D EC 86 0B 26
 8.489974 2  104             Tx   d 8 62 43 81 65 D4 CB 22 74
 8.501130 1  103             Tx   d 8 98 F5 E4 62 73 E2 7D 09
 8.510800 2  104             Tx   d 8 90 13 A8 75 F6 6B 1F 38
 8.526864 1  103             Tx   d 8 E8 55 53 38 19 3A 00 17
 8.545639 2  104             Tx   d 8 3F 73 29 45 A8 A2 0A 08
 8.548548 1  103             Tx   d 8 C1 DA F0 42 F1 1C 7B 69
 8.570865 2  104             Tx   d 8 76 1E 2C 18 BD 07 C8 2D
 8.571048 1  103             Tx   d 8 EC 50 C7 33 5E 1A BA 1C
 8.592840 2  104             Tx   d 8 1E 41 73 4F 98 C6 A2 31
 8.598554 1  103             Tx   d 8 E4 2C 59 24 A4 8A D9 5E
 8.614999 2  104             Tx   d 8 16 93 D5 7F 4D 6E 70 6C
 8.620228 1  103             Tx   d 8 06 53 EC 76 C9 79 A4 7C
 8.635902 2  104             Tx   d 8 4F 8C 6F 63 6E 2B 01 7E
 8.641120 1  103             Tx   d 8 55 D0 C7 14 19 F9 7D 24
 8.657433 2  104             Tx   d 8 EB 10 E5 55 61 26 33 0A
 8.669226 1  103             Tx   d 8 9D 44 5F 15 6E AB 6E 57
 8.678423 2  104             Tx   d 8 62 C6 3F 72 E3 DF F8 17
 8.691381 1  103             Tx   d 8 73 66 A7 7B 8D 27 1C 21
 8.700629 2  104             Tx   d 8 57 FD 33 27 0D 55 58 73
 8.712618 1  103             Tx   d 8 86 D6 8E 19 BE 98 70 1E
 8.731575 2  104             Tx   d 8 AD 11 49 12 2B 16 8F 13
 8.740546 1  103             Tx   d 8 96 DB 96 42 B4 70 53 03
 8.751894 2  104             Tx   d 8 B9 CA 14 03 32 25 D4 05
 8.763224 1  103             Tx   d 8 71 4F 8C 4B 3F F8 1D 51
 8.772794 2  104             Tx   d 8 44 04 99 51 BE 97 66 6E
 8.785407 1  103             Tx   d 8 94 29 58 29 A6 DB 5F 3C
 8.806618 2  104             Tx   d 8 86 51 5F 15 73 AB 01 3D
 8.811624 1  103             Tx   d 8 04 A3 ED 7E CA 08 17 45
 8.829683 2  104             Tx   d 8 D5 D1 34 47 9D 50 E6 28
 8.833369 1  103             Tx   d 8 AB 4D FD 64 56 54 10 1A
 8.853535 2  104             Tx   d 8 80 30 DF 40 50 8E D1 7E
 8.854405 1  103             Tx   d 8 B2 03 C7 1A BF 2B 83 23
 8.875486 2  104             Tx   d 8 5D E3 29 72 17 3C 6C 77
 8.882191 1  103             Tx   d 8 FD 08 F9 4C 3C 06 3D 24
 8.897886 2  104             Tx   d 8 6D 18 05 00 1B B0 B9 66
 8.903044 1  103             Tx   d 8 53 8F F9 73 A4 C3 CF 57
 8.920216 2  104             Tx   d 8 2A EE A7 23 F8 BB 30 04
 8.930640 1  103             Tx   d 8 15 B6 2B 65 9F 56 79 38
 8.940765 2  104             Tx   d 8 27 45 B8 0C F6 25 D3 0D
 8.954059 1  103             Tx   d 8 C3 8B 7D 53 2A 3C 07 6A
 8.974690 2  104             Tx   d 8 6F C0 17 5A 94 9D 90 3A
 8.980166 1  103             Tx   d 8 7D 5B 13 45 F7 2D FF 54
 8.996692 2  104             Tx   d 8 05 00 D5 25 4C D0 25 1D
 9.006153 1  103             Tx   d 8 7A 1A 43 03 2E F6 46 78
 9.030148 2  104             Tx   d 8 BC D0 A1 3D 89 D7 B5 2F
 9.033620 1  103             Tx   d 8 B5 C0 27 48 8B EA DA 6B
 9.052741 2  104             Tx   d 8 A0 13 22 27 1C 92 F6 06
 9.060478 1  103             Tx   d 8 57 6E 55 0B DD F6 59 3A
 9.077002 2  104             Tx   d 8 37 42 B0 6D 6B 80 74 1E
 9.082142 1  103             Tx   d 8 30 E6 60 4F E9 7D A5 67
 9.098421 2  104             Tx   d 8 63 3C A5 22 40 4A C7 19
 9.103662 1  103             Tx   d 8 37 F0 27 2B 91 5B 74 23
 9.119564 2  104             Tx   d 8 37 70 9A 27 C4 AD 30 24
 9.131835 1  103             Tx   d 8 B1 8C 62 10 39 A2 5F 11
 9.141655 2  104             Tx   d 8 C8 00 20 3D 9C 7E 25 0B
 9.154167 1  103             Tx   d 8 49 5B 2F 02 9C 00 6A 33
 9.163040 2  104             Tx   d 8 56 C3 D2 6B DE 59 31 2D
 9.178736 1  103             Tx   d 8 8E 6A 34 59 1C F8 DA 12
 9.195805 2  104             Tx   d 8 84 1E D9 3F 06 6D A3 29
 9.201772 1  103             Tx   d 8 2F 24 AD 59 68 8A 5E 5A
 9.217416 2  104             Tx   d 8 1F 21 6F 59 3A 23 A9 5D
 9.224285 1  103             Tx   d 8 EB 8F 72 2A C5 0C 19 16
 9.239291 2  104             Tx   d 8 47 4F D0 04 87 E6 05 67
 9.245996 1  103             Tx   d 8 6D 25 B0 6F F8 19 63 28
 9.261475 2  104             Tx   d 8 E9 16 5E 78 1A 6D E1 37
 9.272594 1  103             Tx   d 8 32 2A 6F 1C 10 3F 69 58
 9.291970 2  104             Tx   d 8 E1 E7 1F 40 D1 AC 4C 18
 9.298620 1  103             Tx   d 8 B2 0F F0 58 FF 14 77 1B
 9.313755 2  104             Tx   d 8 6E 2B 72 23 6B 48 E7 77
 9.319973 1  103             Tx   d 8 95 A5 E3 43 AD EE 13 20
 9.336169 2  104             Tx   d 8 49 A2 18 25 75 B7 87 40
 9.347315 1  103             Tx   d 8 EB 7A 92 7F 12 EC FE 3C
 9.356848 2  104             Tx   d 8 85 EF 58 47 F5 65 84 44
 9.369200 1  103             Tx   d 8 9B 2A C2 67 9D B2 B5 1E
 9.388167 2  104             Tx   d 8 58 22 89 5B 79 1C 39 30
 9.397535 1  103             Tx   d 8 57 4B 6E 46 00 DD D2 79
 9.410342 2  104             Tx   d 8 00 03 3F 17 BC AD 30 20
 9.418985 1  103             Tx   d 8 88 07 9E 6A BB 82 F7 57
 9.441852 2  104             Tx   d 8 07 54 8C 2B 7A 09 51 3F
 9.446663 1  103             Tx   d 8 BC 34 62 47 86 E7 88 65
 9.462555 2  104             Tx   d 8 4B B6 9D 57 6A CC 25 53
 9.469450 1  103             Tx   d 8 4B F2 14 2A DC 34 3E 25
 9.484767 2  104             Tx   d 8 D5 14 0D 4B 7B 0C 3D 79
 9.492579 1  103             Tx   d 8 AA F0 45 47 90 1F C1 08
 9.505209 2  104             Tx   d 8 F0 C3 C4 39 EE 17 00 0F
 9.520948 1  103             Tx   d 8 76 30 42 1E 5E 2B BA 7E
 9.535815 2  104             Tx   d 8 94 B2 FD 7E 0D F6 67 0A
 9.542892 1  103             Tx   d 8 92 E8 81 43 FC 32 66 7D
 9.556326 2  104             Tx   d 8 86 12 A1 3A 0A EB 1E 5B
 9.570866 1  103             Tx   d 8 F3 D0 94 68 88 B2 3D 28
 9.590072 2  104             Tx   d 8 70 2F 7D 61 9C B3 61 53
 9.592785 1  103             Tx   d 8 03 97 D6 1F 89 9D 29 12
 9.612237 2  104             Tx   d 8 16 BD B2 12 66 B9 0D 1F
 9.620766 1  103             Tx   d 8 B4 ED 5B 64 56 95 0D 0C
 9.632420 2  104             Tx   d 8 D0 85 33 72 F3 E3 A1 61
 9.643855 1  103             Tx   d 8 9E 09 D2 47 7A 5B 0B 0D
 9.653239 2  104             Tx   d 8 6F F0 DE 5A 98 25 B5 6F
 9.668569 1  103             Tx   d 8 E7 48 9F 02 E3 EC 71 5A
 9.685186 2  104             Tx   d 8 D5 67 C1 15 6B BB 39 52
 9.691352 1  103             Tx   d 8 1A 0D 03 16 A0 64 D2 4C
 9.705783 2  104             Tx   d 8 78 B1 A1 5C C8 56 CE 3A
 9.712575 1  103             Tx   d 8 8D AA CF 75 E6 11 30 1E
 9.726771 2  104             Tx   d 8 D2 41 ED 15 E2 35 26 2A
 9.740103 1  103             Tx   d 8 A5 A5 AD 6A 63 6B C3 2F
 9.757598 2  104             Tx   d 8 34 8E 9E 64 71 41 30 64
 9.767029 1  103             Tx   d 8 90 F7 09 22 4E EA DA 7E
 9.790244 2  104             Tx   d 8 AC BE A1 61 A8 80 71 75
 9.795587 1  103             Tx   d 8 D4 CE AA 69 43 06 25 73
 9.811733 2  104             Tx   d 8 4E 1B B2 32 30 20 E0 0C
 9.818899 1  103             Tx   d 8 74 0E F0 19 6B CE 80 01
 9.833078 2  104             Tx   d 8 90 D4 83 21 E6 76 6C 35
 9.845693 1  103             Tx   d 8 EF D2 A8 1F 53 E9 74 05
 9.864588 2  104             Tx   d 8 CE 56 04 4C C9 E3 47 64
 9.872354 1  103             Tx   d 8 96 3A 7B 38 0A 52 13 3A
 9.885336 2  104             Tx   d 8 C7 A7 8A 7B E9 35 1E 4A
 9.894763 1  103             Tx   d 8 D8 6E 4B 65 BD CC 70 78
 9.905671 2  104             Tx   d 8 81 10 5B 5B E9 E1 2D 0D
 9.921447 1  103             Tx   d 8 AC 54 01 50 DD 4A 85 4B
 9.936949 2  104             Tx   d 8 00 EA 4A 37 32 1E 9C 74
 9.949660 1  103             Tx   d 8 61 2A 47 25 08 F0 44 76
 9.957640 2  104             Tx   d 8 DA 9E 0D 6A 3D 92 57 09
 9.974552 1  103             Tx   d 8 96 D4 52 3B B4 D3 C3 34
 9.988974 2  104             Tx   d 8 3B 27 D8 7C FE 86 BB 37
 9.998200 1  103             Tx   d 8 75 90 25 75 20 F2 B2 23
 10.020211 2  104             Tx   d 8 14 79 F9 04 31 1A 05 3B
 10.026549 1  103             Tx   d 8 BB A9 8F 74 F3 7E 64 43
 10.040508 2  104             Tx   d 8 54 60 4F 76 9C 2A 8B 33
 10.054827 1  103             Tx   d 8 5F AD 7D 55 42 0C FD 64
 10.072976 2  104             Tx   d 8 43 BE ED 68 29 36 86 47
 10.076225 1  103             Tx   d 8 20 EA 82 7C 1E 86 48 51
 10.093512 2  104             Tx   d 8 D7 4C 7D 4E 4B 3C E8 55
 10.104137 1  103             Tx   d 8 2B 70 79 19 A7 BE DC 74
 10.114409 2  104             Tx   d 8 F8 E4 D4 6E AB 9E F5 38
 10.126748 1  103             Tx   d 8 E4 22 CF 13 CE 50 7B 60
 10.145446 2  104             Tx   d 8 3E 97 69 65 0F 80 8D 52
 10.153219 1  103             Tx   d 8 00 72 E9 16 19 E9 7D 0D
 10.166568 2  104             Tx   d 8 D5 5B 24 5E 5F 3E 1F 6C
 10.180209 1  103             Tx   d 8 C4 F7 07 09 C8 E7 FF 4F
 10.197376 2  104             Tx   d 8 14 42 48 1C E5 B8 73 1D
 10.201543 1  103             Tx   d 8 26 73 9E 3B 2C 3F AA 6C
 10.218123 2  104             Tx   d 8 3F 95 33 79 5B FC F8 08
 10.229764 1  103             Tx   d 8 97 4C C8 69 B2 1B EF 40
 10.238828 2  104             Tx   d 8 84 32 7F 50 07 EB D1 1C
 10.253214 1  103             Tx   d 8 9E E7 1D 09 70 F1 32 19
 10.270057 2  104             Tx   d 8 AE 2E D0 44 4B 0C 8F 61
 10.280491 1  103             Tx   d 8 43 01 03 34 04 3D 09 5D
 10.301701 2  104             Tx   d 8 3D 64 5E 39 F5 44 BC 15
 10.308414 1  103             Tx   d 8 7D C2 2D 19 ED BF A4 2A
 10.323065 2  104             Tx   d 8 ED 48 38 47 56 08 B2 4A
 10.336964 1  103             Tx   d 8 6E 54 34 67 BF 3B EF 30
 10.353673 2  104             Tx   d 8 C7 11 A2 09 54 1F 18 4A
 10.359702 1  103             Tx   d 8 52 1C 0C 36 55 BE A5 1E
 10.374750 2  104             Tx   d 8 7B 04 A9 69 4E C4 67 60
 10.387453 1  103             Tx   d 8 B3 83 3B 5C 04 D4 D0 72
 10.395206 2  104             Tx   d 8 D0 17 89 42 1B 91 DA 53
 10.411224 1  103             Tx   d 8 B9 D8 18 19 F1 22 07 7C
 10.426351 2  104             Tx   d 8 E3 81 4B 0A 25 3F A7 37
 10.429029 1  103             Tx   d 8 99 68 D9 71 2C E5 C5 44
 10.447038 2  104             Tx   d 8 64 AF A2 2B 94 69 4B 09
 10.452868 1  103             Tx   d 8 CF 15 35 23 2C 2B 37 7F
 10.467953 2  104             Tx   d 8 89 AE 07 1F 73 2E 24 55
 10.478313 1  103             Tx   d 8 C2 F1 7B 08 64 0C 82 40
 10.488549 2  104             Tx   d 8 CA 36 D6 1F 75 10 1A 3E
 10.502146 1  103             Tx   d 8 27 A9 7B 46 03 4B 67 0F
 10.519613 2  104             Tx   d 8 5E 33 BE 17 AE B5 0E 6F
 10.525283 1  103             Tx   d 8 4C BB E4 02 E2 F1 2C 46
 10.541203 2  104             Tx   d 8 FC 79 76 4F FF B5 0C 3A
 10.548171 1  103             Tx   d 8 3A EE 04 61 B8 AD DD 3A
 10.561775 2  104             Tx   d 8 1A 47 E7 0D 51 5D F4 6D
 10.582500 1  103             Tx   d 8 9D 64 BF 6B 8C 56 00 52
 10.592553 2  104             Tx   d 8 B5 96 65 38 C1 C8 56 3E
 10.604732 1  103             Tx   d 8 C2 A0 44 7E 76 A4 85 6F
 10.624686 2  104             Tx   d 8 BB 59 09 49 DE E0 A9 66
 10.633263 1  103             Tx   d 8 E1 3E 60 6E 92 CD F2 11
 10.645677 2  104             Tx   d 8 54 D8 E9 4C 52 9D 68 47
 10.656504 1  103             Tx   d 8 B1 30 5E 37 A6 AD EF 1D
 10.667140 2  104             Tx   d 8 5C B1 0E 15 AA E3 7B 2A
 10.674113 1  103             Tx   d 8 80 6B 10 65 7D 05 4D 1B
 10.688529 2  104             Tx   d 8 58 99 8A 19 50 08 97 72
 10.696496 1  103             Tx   d 8 84 4F F6 78 5F 20 15 6C
 10.709695 2  104             Tx   d 8 4F BE A3 2C A5 F1 78 17
 10.719351 1  103             Tx   d 8 DC F8 AF 73 73 04 78 1D
 10.730900 2  104             Tx   d 8 F6 4E 6D 05 DF 83 F6 0B
 10.743600 1  103             Tx   d 8 A7 71 95 72 5A 9E 04 09
 10.751376 2  104             Tx   d 8 80 E4 37 27 AF F3 AE 73
 10.767079 1  103             Tx   d 8 AC 14 B5 43 F2 DD 6E 0B
 10.782330 2  104             Tx   d 8 B8 D2 7D 63 83 93 C0 20
 10.791945 1  103             Tx   d 8 B7 72 E3 2B 9D 22 C0 53
 10.802840 2  104             Tx   d 8 1A E0 47 05 22 10 58 24
 10.814228 1  103             Tx   d 8 67 88 0E 09 F6 B4 51 51
 10.823633 2  104             Tx   d 8 DC CB EE 23 EF 87 87 67
 10.838780 1  103             Tx   d 8 ED C6 58 44 7D A1 AA 49
 10.855432 2  104             Tx   d 8 13 85 6B 52 3E 89 88 42
 10.861516 1  103             Tx   d 8 B2 4C 8D 20 E6 C4 2F 29
 10.876578 2  104             Tx   d 8 E3 7A 01 5A 9E 72 F1 4F
 10.885220 1  103             Tx   d 8 6D 22 8F 21 99 6C C1 7F
 10.897307 2  104             Tx   d 8 7D F6 E7 5B C5 A5 E3 74
 10.913086 1  103             Tx   d 8 04 B5 22 16 90 D9 06 63
 10.928863 2  104             Tx   d 8 A0 75 2F 14 3C D3 49 40
 10.934777 1  103             Tx   d 8 8C 60 46 30 21 9F 9B 78
 10.949627 2  104             Tx   d 8 C0 66 0A 61 0D D9 8E 3B
 10.955508 1  103             Tx   d 8 2F 31 93 5A B9 D5 06 24
 10.970739 2  104             Tx   d 8 2F E9 E6 5F 2C 58 36 55
 10.982495 1  103             Tx   d 8 C0 9D 18 04 7C 1F 5E 23
 11.001996 2  104             Tx   d 8 CE 31 AA 63 C5 4C 12 51
 11.010236 1  103             Tx   d 8 02 1C E3 4E F3 A5 DF 56
 11.022611 2  104             Tx   d 8 03 D6 9A 13 75 2C 81 21
 11.032879 1  103             Tx   d 8 6C A6 FC 38 9E 34 0B 4C
 11.043032 2  104             Tx   d 8 13 9F 72 71 10 43 BF 6E
 11.054552 1  103             Tx   d 8 74 F7 04 45 03 03 FD 4E
 11.076096 2  104             Tx   d 8 8D 70 7A 50 49 82 35 4C
 11.081959 1  103             Tx   d 8 9A 5F BA 68 3D 29 3D 0E
 11.098179 2  104             Tx   d 8 85 55 7F 0C 03 2C C2 6E
 11.109270 1  103             Tx   d 8 69 4C 13 51 3A 55 E6 76
 11.120203 2  104             Tx   d 8 10 05 51 2A 1F B0 14 5F
 11.130908 1  103             Tx   d 8 73 2A D0 30 73 81 05 4F
 11.141145 2  104             Tx   d 8 4B 08 4B 34 1F 87 17 62
 11.152776 1  103             Tx   d 8 14 A2 D0 1B 78 F7 FC 1C
 11.174302 2  104             Tx   d 8 2C 35 1B 42 E6 8A 48 0F
 11.179432 1  103             Tx   d 8 59 B1 5B 34 D7 EC EC 7C
 11.195202 2  104             Tx   d 8 5B B7 C9 30 3F 86 F2 5C
 11.202164 1  103             Tx   d 8 9D C9 03 77 82 6F 17 54
 11.215578 2  104             Tx   d 8 4F C9 B1 4B D8 76 5D 10
 11.226152 1  103             Tx   d 8 DA 4A C5 3E F6 99 AB 01
 11.237564 2  104             Tx   d 8 4D B7 A2 27 8C 5C 11 40
 11.249971 1  103             Tx   d 8 96 3F 2B 5B 8F 47 46 09
 11.269170 2  104             Tx   d 8 14 6E 06 21 40 71 12 01
 11.277240 1  103             Tx   d 8 2A D8 82 25 67 3B F8 3C
 11.289551 2  104             Tx   d 8 60 21 27 60 57 49 6F 49
 11.299195 1  103             Tx   d 8 DC 4A EE 7E 0A 31 DB 11
 11.320843 2  104             Tx   d 8 12 12 7B 05 65 FC 3E 6E
 11.326201 1  103             Tx   d 8 6B DB AC 4A 67 CF 6C 20
 11.341507 2  104             Tx   d 8 4B 87 87 7D C0 65 22 7D
 11.349136 1  103             Tx   d 8 CE FE 10 79 31 AA 19 1C
 11.361667 2  104             Tx   d 8 FF EB 14 5A 86 AE 9E 60
 11.372815 1  103             Tx   d 8 11 8B 09 68 B2 5C 44 0D
 11.382852 2  104             Tx   d 8 5E 25 FC 70 14 81 24 40
 11.393920 1  103             Tx   d 8 D3 0F 84 61 67 1C 99 79
 11.403252 2  104             Tx   d 8 A0 DD 35 00 DF 9B A5 50
 11.414546 1  103             Tx   d 8 9E D6 7A 77 DF D1 4C 40
 11.435291 2  104             Tx   d 8 9A 91 03 26 09 6C 42 4E
 11.441789 1  103             Tx   d 8 21 BB 6C 28 ED D1 33 6C
 11.456751 2  104             Tx   d 8 61 B5 B1 17 57 61 D0 0C
 11.464408 1  103             Tx   d 8 B4 A0 DA 39 B7 CF 59 68
 11.477541 2  104             Tx   d 8 04 66 6D 70 B8 EE 17 20
 11.486701 1  103             Tx   d 8 C5 AD 1D 28 1A F9 99 43
 11.498302 2  104             Tx   d 8 F7 35 AE 67 88 09 FF 2E
 11.514097 1  103             Tx   d 8 2C D7 7B 43 DF DB A2 77
 11.529615 2  104             Tx   d 8 EC 36 99 65 44 DD DD 2D
 11.537563 1  103             Tx   d 8 FB BF F8 15 24 3A 5E 7B
 11.551160 2  104             Tx   d 8 58 5E 02 6E 48 AE DB 17
 11.559824 1  103             Tx   d 8 3E DC BB 43 9F 2C B2 26
 11.572065 2  104             Tx   d 8 27 4A 81 68 B1 57 17 3A
 11.583007 1  103             Tx   d 8 E5 13 4D 52 F7 A2 36 59
 11.603361 2  104             Tx   d 8 02 DC 72 0F 75 E4 41 5D
 11.609440 1  103             Tx   d 8 AD D2 C3 3F F2 FA 79 71
 11.624564 2  104             Tx   d 8 CC 45 12 6A 8D 7D F4 59
 11.633550 1  103             Tx   d 8 E8 A8 BB 39 B5 E5 DC 31
 11.656024 2  104             Tx   d 8 9A EB 41 20 3D A2 BA 61
 11.659978 1  103             Tx   d 8 86 F1 EB 18 77 A2 67 45
 11.676621 2  104             Tx   d 8 A4 2A B5 66 2E EB 23 28
 11.683109 1  103             Tx   d 8 3A EA 37 55 9F 44 AB 03
 11.697689 2  104             Tx   d 8 73 C8 01 56 82 69 E0 42
 11.706281 1  103             Tx   d 8 66 A2 22 39 4D 38 AD 08
 11.718071 2  104             Tx   d 8 CB 17 BC 5A D0 F6 17 12
 11.730679 1  103             Tx   d 8 CE A5 35 45 52 E7 8B 4F
 11.748677 2  104             Tx   d 8 EB D1 6D 04 03 33 30 72
 11.759278 1  103             Tx   d 8 22 CC 11 64 83 27 66 04
 11.769396 2  104             Tx   d 8 79 17 72 4F EB 4D EA 3D
 11.782818 1  103             Tx   d 8 AD AE 80 21 13 5D 8A 1D
 11.800825 2  104             Tx   d 8 16 09 04 14 BE 37 EB 11
 11.806521 1  103             Tx   d 8 ED E3 F3 78 F8 08 EA 06
 11.821826 2  104             Tx   d 8 FC D9 A5 73 03 93 0A 0C
 11.835100 1  103             Tx   d 8 E5 D6 F3 51 AB CB D7 72
 11.842196 2  104             Tx   d 8 32 7E 2E 34 7F A8 8C 17
 11.856126 1  103             Tx   d 8 2E 4A 96 50 72 60 2B 4E
 11.873138 2  104             Tx   d 8 70 6D 34 4E CD 29 29 35
 11.879430 1  103             Tx   d 8 E6 31 EA 1D E1 EB A5 6A
 11.893930 2  104             Tx   d 8 BF 8B 66 78 5E 69 D4 27
 11.903423 1  103             Tx   d 8 6A 8C 27 0F 57 14 11 79
 11.914504 2  104             Tx   d 8 61 9C 04 1A 4E 3C 69 44
 11.926352 1  103             Tx   d 8 E4 91 B7 6B 44 4D 22 00
 11.946097 2  104             Tx   d 8 20 11 FB 22 B2 55 32 1A
 11.949841 1  103             Tx   d 8 6D 7C A1 3E E4 FC B9 18
 11.966545 2  104             Tx   d 8 70 8D 1D 2C 7B 91 53 32
 11.978757 1  103             Tx   d 8 E3 CA 25 7B E3 59 94 3C
 11.997256 2  104             Tx   d 8 0C 6C 1E 7A B0 A2 8C 72
 12.002499 1  103             Tx   d 8 2C 9C 13 4C F4 20 C0 00
 12.018087 2  104             Tx   d 8 55 E9 BC 7C 3B 4F AB 74
 12.031859 1  103             Tx   d 8 F2 FA 22 22 54 81 EA 7C
 12.038503 2  104             Tx   d 8 08 79 D4 29 24 11 FA 45
 12.055581 1  103             Tx   d 8 76 FE C7 2E 3A B1 28 11
 12.069910 2  104             Tx   d 8 72 62 0F 1F E4 16 D3 07
 12.079642 1  103             Tx   d 8 B4 F3 40 10 1D 39 98 79
 12.091387 2  104             Tx   d 8 BE CA 49 71 CD 7C F5 57
 12.104749 1  103             Tx   d 8 E1 ED 25 52 77 2D 75 64
 12.112350 2  104             Tx   d 8 7F D2 27 72 6D 5A 9B 6C
 12.122798 1  103             Tx   d 8 33 BE 2C 0E 60 07 45 38
 12.133081 2  104             Tx   d 8 E8 EB EE 1E FA 04 89 36
 12.146509 1  103             Tx   d 8 9A 16 49 6A 6B 01 EE 7E
 12.153594 2  104             Tx   d 8 B4 99 3A 39 69 33 27 38
 12.163412 1  103             Tx   d 8 25 71 90 55 BA 77 64 14
 12.173963 2  104             Tx   d 8 A6 05 EF 58 6C 9C 96 4C
 12.187305 1  103             Tx   d 8 EC 0A 99 31 E1 57 4A 33
 12.194411 2  104             Tx   d 8 32 F3 87 17 30 9F F8 71
 12.210707 1  103             Tx   d 8 55 6F 0D 0A 1A 25 8C 6F
 12.225447 2  104             Tx   d 8 72 D0 22 74 6A 06 43 33
 12.227397 1  103             Tx   d 8 2C 0A 30 19 6D 50 13 74
 12.245634 2  104             Tx   d 8 75 74 07 63 38 69 29 70
 12.251757 1  103             Tx   d 8 F0 FB 14 0C 5B 70 63 7B
 12.266460 2  104             Tx   d 8 16 45 6E 04 53 12 E2 13
 12.274702 1  103             Tx   d 8 EE 8E 30 07 18 88 8A 18
 12.287195 2  104             Tx   d 8 43 72 27 32 C0 73 10 6A
 12.297880 1  103             Tx   d 8 19 12 4E 26 B6 1A 12 12
 12.308195 2  104             Tx   d 8 27 84 5D 47 D9 D9 75 3F
 12.321380 1  103             Tx   d 8 CB AA 35 05 A1 70 9D 63
 12.338891 2  104             Tx   d 8 AA D3 CD 63 EE D6 12 5B
 12.343990 1  103             Tx   d 8 DF 32 BE 16 51 37 5C 49
 12.360411 2  104             Tx   d 8 1E 76 0B 4D B0 7B C8 4D
 12.371074 1  103             Tx   d 8 50 19 1A 4F 33 14 88 49
 12.381239 2  104             Tx   d 8 46 03 D5 44 7C B1 62 52
 12.394774 1  103             Tx   d 8 D1 E3 31 31 C1 77 0F 42
 12.412604 2  104             Tx   d 8 F7 0A DE 33 57 B4 E1 3D
 12.422619 1  103             Tx   d 8 1B A0 00 45 D2 68 8C 59
 12.433768 2  104             Tx   d 8 AA C6 C3 51 39 4A 31 21
 12.444107 1  103             Tx   d 8 9F 76 0E 3A 3B 86 07 79
 12.454236 2  104             Tx   d 8 FA BD 41 0B 5E CB 39 0E
 12.467861 1  103             Tx   d 8 C9 8F 8D 64 1F 1A 06 78
 12.476925 2  104             Tx   d 8 38 A5 AF 4D 97 DF 72 1C
 12.490358 1  103             Tx   d 8 35 16 3F 10 3A 01 EC 43
 12.514827 2  104             Tx   d 8 ED 2C B1 3B E3 C0 43 62
 12.520675 1  103             Tx   d 8 E7 51 51 0E 07 A8 1C 7C
 12.538492 2  104             Tx   d 8 94 3C 0C 30 F0 F4 39 27
 12.550021 1  103             Tx   d 8 67 86 E6 74 C5 91 D1 65
 12.563289 2  104             Tx   d 8 6D A6 9C 79 A1 DD 7D 7E
 12.569116 1  103             Tx   d 8 60 85 32 27 EA CE 43 0A
 12.585460 2  104             Tx   d 8 97 72 07 76 91 EC 73 6C
 12.598380 1  103             Tx   d 8 A4 88 92 38 6A 1B CE 04
 12.617830 2  104             Tx   d 8 31 7F 48 6D D8 C7 BE 2C
 12.621413 1  103             Tx   d 8 27 4A 65 0B 16 42 06 37
 12.640963 2  104             Tx   d 8 36 93 F8 3A 6D 41 70 1D
 12.649825 1  103             Tx   d 8 FD 99 D8 6C 42 B1 0A 4D
 12.662568 2  104             Tx   d 8 04 21 E3 39 AB F8 FF 34
 12.672732 1  103             Tx   d 8 95 3D 71 3C 39 F9 F7 45
 12.682885 2  104             Tx   d 8 B5 45 A4 02 5A BB F7 24
 12.697647 1  103             Tx   d 8 21 D8 CA 56 35 6D 73 42
